2025-06-04 16:53:08,786 - INFO - __init__:123 - Modbus TCP Server 應用程式初始化完成
2025-06-04 16:53:08,786 - INFO - run:567 - === Modbus TCP Server 啟動 (生產環境) ===
2025-06-04 16:53:08,786 - INFO - run:568 - Python 版本: 3.12.9 | packaged by Anaconda, Inc. | (main, Feb  6 2025, 18:49:16) [MSC v.1929 64 bit (AMD64)]
2025-06-04 16:53:08,786 - INFO - run:569 - 基礎路徑: C:\Users\user\Documents\GitHub\DobotM1Project\ModbusServer\dist\ModbusTCPServer\_internal
2025-06-04 16:53:08,786 - INFO - write_register:252 - 寫入暫存器 0: 0 -> 100
2025-06-04 16:53:08,787 - INFO - write_register:252 - 寫入暫存器 1: 0 -> 200
2025-06-04 16:53:08,787 - INFO - write_register:252 - 寫入暫存器 10: 0 -> 1000
2025-06-04 16:53:08,787 - INFO - write_register:252 - 寫入暫存器 50: 0 -> 5000
2025-06-04 16:53:08,787 - INFO - write_register:252 - 寫入暫存器 100: 0 -> 12345
2025-06-04 16:53:08,787 - INFO - write_register:252 - 寫入暫存器 200: 0 -> 32768
2025-06-04 16:53:08,787 - INFO - write_register:252 - 寫入暫存器 500: 0 -> 65535
2025-06-04 16:53:08,787 - INFO - write_register:252 - 寫入暫存器 999: 0 -> 40000
2025-06-04 16:53:08,790 - INFO - initialize_test_data:546 - 測試數據和註解初始化完成 (無符號 0-65535 範圍)
2025-06-04 16:53:08,791 - INFO - start_web_server:501 - 啟動Web管理介面於 http://127.0.0.1:8000
2025-06-04 16:53:09,791 - INFO - start_modbus_server:484 - 啟動Modbus TCP Server於 0.0.0.0:502, SlaveID: 1
2025-06-04 16:54:44,540 - INFO - setValues:75 - 外部更新暫存器 1: 0
2025-06-04 16:54:44,541 - INFO - setValues:75 - 外部更新暫存器 1: 0
2025-06-04 16:54:44,543 - INFO - write_register:252 - 寫入暫存器 0: 200 -> 0
2025-06-04 16:54:44,544 - INFO - setValues:75 - 外部更新暫存器 2: 0
2025-06-04 16:54:44,545 - INFO - setValues:75 - 外部更新暫存器 2: 0
2025-06-04 16:54:44,546 - INFO - write_register:252 - 寫入暫存器 1: 0 -> 0
2025-06-04 16:54:44,546 - INFO - setValues:75 - 外部更新暫存器 3: 0
2025-06-04 16:54:44,547 - INFO - setValues:75 - 外部更新暫存器 3: 0
2025-06-04 16:54:44,547 - INFO - write_register:252 - 寫入暫存器 2: 0 -> 0
2025-06-04 16:54:44,547 - INFO - setValues:75 - 外部更新暫存器 4: 0
2025-06-04 16:54:44,548 - INFO - setValues:75 - 外部更新暫存器 4: 0
2025-06-04 16:54:44,548 - INFO - write_register:252 - 寫入暫存器 3: 0 -> 0
2025-06-04 16:54:44,548 - INFO - setValues:75 - 外部更新暫存器 5: 0
2025-06-04 16:54:44,548 - INFO - setValues:75 - 外部更新暫存器 5: 0
2025-06-04 16:54:44,548 - INFO - write_register:252 - 寫入暫存器 4: 0 -> 0
2025-06-04 16:54:44,548 - INFO - setValues:75 - 外部更新暫存器 6: 0
2025-06-04 16:54:44,548 - INFO - setValues:75 - 外部更新暫存器 6: 0
2025-06-04 16:54:44,549 - INFO - write_register:252 - 寫入暫存器 5: 0 -> 0
2025-06-04 16:54:44,549 - INFO - setValues:75 - 外部更新暫存器 7: 0
2025-06-04 16:54:44,549 - INFO - setValues:75 - 外部更新暫存器 7: 0
2025-06-04 16:54:44,549 - INFO - write_register:252 - 寫入暫存器 6: 0 -> 0
2025-06-04 16:54:44,549 - INFO - setValues:75 - 外部更新暫存器 8: 0
2025-06-04 16:54:44,549 - INFO - setValues:75 - 外部更新暫存器 8: 0
2025-06-04 16:54:44,549 - INFO - write_register:252 - 寫入暫存器 7: 0 -> 0
2025-06-04 16:54:44,549 - INFO - setValues:75 - 外部更新暫存器 9: 0
2025-06-04 16:54:44,550 - INFO - setValues:75 - 外部更新暫存器 9: 0
2025-06-04 16:54:44,550 - INFO - write_register:252 - 寫入暫存器 8: 0 -> 0
2025-06-04 16:54:44,550 - INFO - setValues:75 - 外部更新暫存器 10: 0
2025-06-04 16:54:44,550 - INFO - setValues:75 - 外部更新暫存器 10: 0
2025-06-04 16:54:44,550 - INFO - write_register:252 - 寫入暫存器 9: 0 -> 0
2025-06-04 16:54:44,550 - INFO - setValues:75 - 外部更新暫存器 11: 0
2025-06-04 16:54:44,550 - INFO - setValues:75 - 外部更新暫存器 11: 0
2025-06-04 16:54:44,550 - INFO - write_register:252 - 寫入暫存器 10: 0 -> 0
2025-06-04 16:54:44,550 - INFO - setValues:75 - 外部更新暫存器 12: 0
2025-06-04 16:54:44,551 - INFO - setValues:75 - 外部更新暫存器 12: 0
2025-06-04 16:54:44,551 - INFO - write_register:252 - 寫入暫存器 11: 0 -> 0
2025-06-04 16:54:44,551 - INFO - setValues:75 - 外部更新暫存器 13: 0
2025-06-04 16:54:44,551 - INFO - setValues:75 - 外部更新暫存器 13: 0
2025-06-04 16:54:44,551 - INFO - write_register:252 - 寫入暫存器 12: 0 -> 0
2025-06-04 16:54:44,551 - INFO - setValues:75 - 外部更新暫存器 14: 0
2025-06-04 16:54:44,551 - INFO - setValues:75 - 外部更新暫存器 14: 0
2025-06-04 16:54:44,551 - INFO - write_register:252 - 寫入暫存器 13: 0 -> 0
2025-06-04 16:54:44,551 - INFO - setValues:75 - 外部更新暫存器 15: 0
2025-06-04 16:54:44,552 - INFO - setValues:75 - 外部更新暫存器 15: 0
2025-06-04 16:54:44,552 - INFO - write_register:252 - 寫入暫存器 14: 0 -> 0
2025-06-04 16:54:44,552 - INFO - setValues:75 - 外部更新暫存器 16: 0
2025-06-04 16:54:44,552 - INFO - setValues:75 - 外部更新暫存器 16: 0
2025-06-04 16:54:44,552 - INFO - write_register:252 - 寫入暫存器 15: 0 -> 0
2025-06-04 16:54:44,552 - INFO - setValues:75 - 外部更新暫存器 17: 0
2025-06-04 16:54:44,552 - INFO - setValues:75 - 外部更新暫存器 17: 0
2025-06-04 16:54:44,552 - INFO - write_register:252 - 寫入暫存器 16: 0 -> 0
2025-06-04 16:54:44,552 - INFO - setValues:75 - 外部更新暫存器 18: 0
2025-06-04 16:54:44,553 - INFO - setValues:75 - 外部更新暫存器 18: 0
2025-06-04 16:54:44,553 - INFO - write_register:252 - 寫入暫存器 17: 0 -> 0
2025-06-04 16:54:44,553 - INFO - setValues:75 - 外部更新暫存器 19: 0
2025-06-04 16:54:44,553 - INFO - setValues:75 - 外部更新暫存器 19: 0
2025-06-04 16:54:44,553 - INFO - write_register:252 - 寫入暫存器 18: 0 -> 0
2025-06-04 16:54:44,553 - INFO - setValues:75 - 外部更新暫存器 20: 0
2025-06-04 16:54:44,553 - INFO - setValues:75 - 外部更新暫存器 20: 0
2025-06-04 16:54:44,553 - INFO - write_register:252 - 寫入暫存器 19: 0 -> 0
2025-06-04 16:54:44,553 - INFO - setValues:75 - 外部更新暫存器 21: 0
2025-06-04 16:54:44,554 - INFO - setValues:75 - 外部更新暫存器 21: 0
2025-06-04 16:54:44,554 - INFO - write_register:252 - 寫入暫存器 20: 0 -> 0
2025-06-04 16:54:44,554 - INFO - setValues:75 - 外部更新暫存器 22: 0
2025-06-04 16:54:44,554 - INFO - setValues:75 - 外部更新暫存器 22: 0
2025-06-04 16:54:44,554 - INFO - write_register:252 - 寫入暫存器 21: 0 -> 0
2025-06-04 16:54:44,554 - INFO - setValues:75 - 外部更新暫存器 23: 0
2025-06-04 16:54:44,555 - INFO - setValues:75 - 外部更新暫存器 23: 0
2025-06-04 16:54:44,555 - INFO - write_register:252 - 寫入暫存器 22: 0 -> 0
2025-06-04 16:54:44,556 - INFO - setValues:75 - 外部更新暫存器 24: 0
2025-06-04 16:54:44,556 - INFO - setValues:75 - 外部更新暫存器 24: 0
2025-06-04 16:54:44,556 - INFO - write_register:252 - 寫入暫存器 23: 0 -> 0
2025-06-04 16:54:44,556 - INFO - setValues:75 - 外部更新暫存器 25: 0
2025-06-04 16:54:44,556 - INFO - setValues:75 - 外部更新暫存器 25: 0
2025-06-04 16:54:44,557 - INFO - write_register:252 - 寫入暫存器 24: 0 -> 0
2025-06-04 16:54:44,557 - INFO - setValues:75 - 外部更新暫存器 26: 0
2025-06-04 16:54:44,557 - INFO - setValues:75 - 外部更新暫存器 26: 0
2025-06-04 16:54:44,557 - INFO - write_register:252 - 寫入暫存器 25: 0 -> 0
2025-06-04 16:54:44,557 - INFO - setValues:75 - 外部更新暫存器 27: 0
2025-06-04 16:54:44,557 - INFO - setValues:75 - 外部更新暫存器 27: 0
2025-06-04 16:54:44,557 - INFO - write_register:252 - 寫入暫存器 26: 0 -> 0
2025-06-04 16:54:44,557 - INFO - setValues:75 - 外部更新暫存器 28: 0
2025-06-04 16:54:44,558 - INFO - setValues:75 - 外部更新暫存器 28: 0
2025-06-04 16:54:44,558 - INFO - write_register:252 - 寫入暫存器 27: 0 -> 0
2025-06-04 16:54:44,558 - INFO - setValues:75 - 外部更新暫存器 29: 0
2025-06-04 16:54:44,558 - INFO - setValues:75 - 外部更新暫存器 29: 0
2025-06-04 16:54:44,558 - INFO - write_register:252 - 寫入暫存器 28: 0 -> 0
2025-06-04 16:54:44,558 - INFO - setValues:75 - 外部更新暫存器 30: 0
2025-06-04 16:54:44,558 - INFO - setValues:75 - 外部更新暫存器 30: 0
2025-06-04 16:54:44,559 - INFO - write_register:252 - 寫入暫存器 29: 0 -> 0
2025-06-04 16:54:44,560 - INFO - setValues:75 - 外部更新暫存器 31: 0
2025-06-04 16:54:44,560 - INFO - setValues:75 - 外部更新暫存器 31: 0
2025-06-04 16:54:44,560 - INFO - write_register:252 - 寫入暫存器 30: 0 -> 0
2025-06-04 16:54:44,561 - INFO - setValues:75 - 外部更新暫存器 32: 0
2025-06-04 16:54:44,561 - INFO - setValues:75 - 外部更新暫存器 32: 0
2025-06-04 16:54:44,561 - INFO - write_register:252 - 寫入暫存器 31: 0 -> 0
2025-06-04 16:54:44,561 - INFO - setValues:75 - 外部更新暫存器 33: 0
2025-06-04 16:54:44,561 - INFO - setValues:75 - 外部更新暫存器 33: 0
2025-06-04 16:54:44,561 - INFO - write_register:252 - 寫入暫存器 32: 0 -> 0
2025-06-04 16:54:44,561 - INFO - setValues:75 - 外部更新暫存器 34: 0
2025-06-04 16:54:44,561 - INFO - setValues:75 - 外部更新暫存器 34: 0
2025-06-04 16:54:44,561 - INFO - write_register:252 - 寫入暫存器 33: 0 -> 0
2025-06-04 16:54:44,562 - INFO - setValues:75 - 外部更新暫存器 35: 0
2025-06-04 16:54:44,562 - INFO - setValues:75 - 外部更新暫存器 35: 0
2025-06-04 16:54:44,562 - INFO - write_register:252 - 寫入暫存器 34: 0 -> 0
2025-06-04 16:54:44,562 - INFO - setValues:75 - 外部更新暫存器 36: 0
2025-06-04 16:54:44,562 - INFO - setValues:75 - 外部更新暫存器 36: 0
2025-06-04 16:54:44,562 - INFO - write_register:252 - 寫入暫存器 35: 0 -> 0
2025-06-04 16:54:44,562 - INFO - setValues:75 - 外部更新暫存器 37: 0
2025-06-04 16:54:44,562 - INFO - setValues:75 - 外部更新暫存器 37: 0
2025-06-04 16:54:44,563 - INFO - write_register:252 - 寫入暫存器 36: 0 -> 0
2025-06-04 16:54:44,563 - INFO - setValues:75 - 外部更新暫存器 38: 0
2025-06-04 16:54:44,563 - INFO - setValues:75 - 外部更新暫存器 38: 0
2025-06-04 16:54:44,563 - INFO - write_register:252 - 寫入暫存器 37: 0 -> 0
2025-06-04 16:54:44,563 - INFO - setValues:75 - 外部更新暫存器 39: 0
2025-06-04 16:54:44,564 - INFO - setValues:75 - 外部更新暫存器 39: 0
2025-06-04 16:54:44,564 - INFO - write_register:252 - 寫入暫存器 38: 0 -> 0
2025-06-04 16:54:44,564 - INFO - setValues:75 - 外部更新暫存器 40: 0
2025-06-04 16:54:44,564 - INFO - setValues:75 - 外部更新暫存器 40: 0
2025-06-04 16:54:44,564 - INFO - write_register:252 - 寫入暫存器 39: 0 -> 0
2025-06-04 16:54:44,564 - INFO - setValues:75 - 外部更新暫存器 41: 0
2025-06-04 16:54:44,564 - INFO - setValues:75 - 外部更新暫存器 41: 0
2025-06-04 16:54:44,564 - INFO - write_register:252 - 寫入暫存器 40: 0 -> 0
2025-06-04 16:54:44,565 - INFO - setValues:75 - 外部更新暫存器 42: 0
2025-06-04 16:54:44,565 - INFO - setValues:75 - 外部更新暫存器 42: 0
2025-06-04 16:54:44,565 - INFO - write_register:252 - 寫入暫存器 41: 0 -> 0
2025-06-04 16:54:44,565 - INFO - setValues:75 - 外部更新暫存器 43: 0
2025-06-04 16:54:44,565 - INFO - setValues:75 - 外部更新暫存器 43: 0
2025-06-04 16:54:44,565 - INFO - write_register:252 - 寫入暫存器 42: 0 -> 0
2025-06-04 16:54:44,565 - INFO - setValues:75 - 外部更新暫存器 44: 0
2025-06-04 16:54:44,565 - INFO - setValues:75 - 外部更新暫存器 44: 0
2025-06-04 16:54:44,566 - INFO - write_register:252 - 寫入暫存器 43: 0 -> 0
2025-06-04 16:54:44,566 - INFO - setValues:75 - 外部更新暫存器 45: 0
2025-06-04 16:54:44,566 - INFO - setValues:75 - 外部更新暫存器 45: 0
2025-06-04 16:54:44,566 - INFO - write_register:252 - 寫入暫存器 44: 0 -> 0
2025-06-04 16:54:44,566 - INFO - setValues:75 - 外部更新暫存器 46: 0
2025-06-04 16:54:44,566 - INFO - setValues:75 - 外部更新暫存器 46: 0
2025-06-04 16:54:44,566 - INFO - write_register:252 - 寫入暫存器 45: 0 -> 0
2025-06-04 16:54:44,566 - INFO - setValues:75 - 外部更新暫存器 47: 0
2025-06-04 16:54:44,566 - INFO - setValues:75 - 外部更新暫存器 47: 0
2025-06-04 16:54:44,566 - INFO - write_register:252 - 寫入暫存器 46: 0 -> 0
2025-06-04 16:54:44,567 - INFO - setValues:75 - 外部更新暫存器 48: 0
2025-06-04 16:54:44,567 - INFO - setValues:75 - 外部更新暫存器 48: 0
2025-06-04 16:54:44,567 - INFO - write_register:252 - 寫入暫存器 47: 0 -> 0
2025-06-04 16:54:44,567 - INFO - setValues:75 - 外部更新暫存器 49: 0
2025-06-04 16:54:44,567 - INFO - setValues:75 - 外部更新暫存器 49: 0
2025-06-04 16:54:44,567 - INFO - write_register:252 - 寫入暫存器 48: 0 -> 0
2025-06-04 16:54:44,567 - INFO - setValues:75 - 外部更新暫存器 50: 0
2025-06-04 16:54:44,567 - INFO - setValues:75 - 外部更新暫存器 50: 0
2025-06-04 16:54:44,567 - INFO - write_register:252 - 寫入暫存器 49: 0 -> 0
2025-06-04 16:54:44,568 - INFO - setValues:75 - 外部更新暫存器 51: 0
2025-06-04 16:54:44,568 - INFO - setValues:75 - 外部更新暫存器 51: 0
2025-06-04 16:54:44,568 - INFO - write_register:252 - 寫入暫存器 50: 0 -> 0
2025-06-04 16:54:44,568 - INFO - setValues:75 - 外部更新暫存器 52: 0
2025-06-04 16:54:44,568 - INFO - setValues:75 - 外部更新暫存器 52: 0
2025-06-04 16:54:44,568 - INFO - write_register:252 - 寫入暫存器 51: 0 -> 0
2025-06-04 16:54:44,568 - INFO - setValues:75 - 外部更新暫存器 53: 0
2025-06-04 16:54:44,568 - INFO - setValues:75 - 外部更新暫存器 53: 0
2025-06-04 16:54:44,568 - INFO - write_register:252 - 寫入暫存器 52: 0 -> 0
2025-06-04 16:54:44,569 - INFO - setValues:75 - 外部更新暫存器 54: 0
2025-06-04 16:54:44,569 - INFO - setValues:75 - 外部更新暫存器 54: 0
2025-06-04 16:54:44,569 - INFO - write_register:252 - 寫入暫存器 53: 0 -> 0
2025-06-04 16:54:44,569 - INFO - setValues:75 - 外部更新暫存器 55: 0
2025-06-04 16:54:44,569 - INFO - setValues:75 - 外部更新暫存器 55: 0
2025-06-04 16:54:44,569 - INFO - write_register:252 - 寫入暫存器 54: 0 -> 0
2025-06-04 16:54:44,569 - INFO - setValues:75 - 外部更新暫存器 56: 0
2025-06-04 16:54:44,569 - INFO - setValues:75 - 外部更新暫存器 56: 0
2025-06-04 16:54:44,569 - INFO - write_register:252 - 寫入暫存器 55: 0 -> 0
2025-06-04 16:54:44,569 - INFO - setValues:75 - 外部更新暫存器 57: 0
2025-06-04 16:54:44,570 - INFO - setValues:75 - 外部更新暫存器 57: 0
2025-06-04 16:54:44,570 - INFO - write_register:252 - 寫入暫存器 56: 0 -> 0
2025-06-04 16:54:44,570 - INFO - setValues:75 - 外部更新暫存器 58: 0
2025-06-04 16:54:44,570 - INFO - setValues:75 - 外部更新暫存器 58: 0
2025-06-04 16:54:44,570 - INFO - write_register:252 - 寫入暫存器 57: 0 -> 0
2025-06-04 16:54:44,570 - INFO - setValues:75 - 外部更新暫存器 59: 0
2025-06-04 16:54:44,570 - INFO - setValues:75 - 外部更新暫存器 59: 0
2025-06-04 16:54:44,571 - INFO - write_register:252 - 寫入暫存器 58: 0 -> 0
2025-06-04 16:54:44,571 - INFO - setValues:75 - 外部更新暫存器 60: 0
2025-06-04 16:54:44,571 - INFO - setValues:75 - 外部更新暫存器 60: 0
2025-06-04 16:54:44,571 - INFO - write_register:252 - 寫入暫存器 59: 0 -> 0
2025-06-04 16:54:44,571 - INFO - setValues:75 - 外部更新暫存器 61: 0
2025-06-04 16:54:44,571 - INFO - setValues:75 - 外部更新暫存器 61: 0
2025-06-04 16:54:44,571 - INFO - write_register:252 - 寫入暫存器 60: 0 -> 0
2025-06-04 16:54:44,572 - INFO - setValues:75 - 外部更新暫存器 62: 0
2025-06-04 16:54:44,572 - INFO - setValues:75 - 外部更新暫存器 62: 0
2025-06-04 16:54:44,572 - INFO - write_register:252 - 寫入暫存器 61: 0 -> 0
2025-06-04 16:54:44,572 - INFO - setValues:75 - 外部更新暫存器 63: 0
2025-06-04 16:54:44,572 - INFO - setValues:75 - 外部更新暫存器 63: 0
2025-06-04 16:54:44,572 - INFO - write_register:252 - 寫入暫存器 62: 0 -> 0
2025-06-04 16:54:44,572 - INFO - setValues:75 - 外部更新暫存器 64: 0
2025-06-04 16:54:44,572 - INFO - setValues:75 - 外部更新暫存器 64: 0
2025-06-04 16:54:44,572 - INFO - write_register:252 - 寫入暫存器 63: 0 -> 0
2025-06-04 16:54:44,573 - INFO - setValues:75 - 外部更新暫存器 65: 0
2025-06-04 16:54:44,573 - INFO - setValues:75 - 外部更新暫存器 65: 0
2025-06-04 16:54:44,573 - INFO - write_register:252 - 寫入暫存器 64: 0 -> 0
2025-06-04 16:54:44,573 - INFO - setValues:75 - 外部更新暫存器 66: 0
2025-06-04 16:54:44,573 - INFO - setValues:75 - 外部更新暫存器 66: 0
2025-06-04 16:54:44,573 - INFO - write_register:252 - 寫入暫存器 65: 0 -> 0
2025-06-04 16:54:44,573 - INFO - setValues:75 - 外部更新暫存器 67: 0
2025-06-04 16:54:44,574 - INFO - setValues:75 - 外部更新暫存器 67: 0
2025-06-04 16:54:44,574 - INFO - write_register:252 - 寫入暫存器 66: 0 -> 0
2025-06-04 16:54:44,574 - INFO - setValues:75 - 外部更新暫存器 68: 0
2025-06-04 16:54:44,574 - INFO - setValues:75 - 外部更新暫存器 68: 0
2025-06-04 16:54:44,574 - INFO - write_register:252 - 寫入暫存器 67: 0 -> 0
2025-06-04 16:54:44,574 - INFO - setValues:75 - 外部更新暫存器 69: 0
2025-06-04 16:54:44,574 - INFO - setValues:75 - 外部更新暫存器 69: 0
2025-06-04 16:54:44,574 - INFO - write_register:252 - 寫入暫存器 68: 0 -> 0
2025-06-04 16:54:44,574 - INFO - setValues:75 - 外部更新暫存器 70: 0
2025-06-04 16:54:44,575 - INFO - setValues:75 - 外部更新暫存器 70: 0
2025-06-04 16:54:44,576 - INFO - write_register:252 - 寫入暫存器 69: 0 -> 0
2025-06-04 16:54:44,576 - INFO - setValues:75 - 外部更新暫存器 71: 0
2025-06-04 16:54:44,576 - INFO - setValues:75 - 外部更新暫存器 71: 0
2025-06-04 16:54:44,576 - INFO - write_register:252 - 寫入暫存器 70: 0 -> 0
2025-06-04 16:54:44,576 - INFO - setValues:75 - 外部更新暫存器 72: 0
2025-06-04 16:54:44,576 - INFO - setValues:75 - 外部更新暫存器 72: 0
2025-06-04 16:54:44,577 - INFO - write_register:252 - 寫入暫存器 71: 0 -> 0
2025-06-04 16:54:44,577 - INFO - setValues:75 - 外部更新暫存器 73: 0
2025-06-04 16:54:44,577 - INFO - setValues:75 - 外部更新暫存器 73: 0
2025-06-04 16:54:44,577 - INFO - write_register:252 - 寫入暫存器 72: 0 -> 0
2025-06-04 16:54:44,577 - INFO - setValues:75 - 外部更新暫存器 74: 0
2025-06-04 16:54:44,577 - INFO - setValues:75 - 外部更新暫存器 74: 0
2025-06-04 16:54:44,577 - INFO - write_register:252 - 寫入暫存器 73: 0 -> 0
2025-06-04 16:54:44,577 - INFO - setValues:75 - 外部更新暫存器 75: 0
2025-06-04 16:54:44,578 - INFO - setValues:75 - 外部更新暫存器 75: 0
2025-06-04 16:54:44,578 - INFO - write_register:252 - 寫入暫存器 74: 0 -> 0
2025-06-04 16:54:44,578 - INFO - setValues:75 - 外部更新暫存器 76: 0
2025-06-04 16:54:44,578 - INFO - setValues:75 - 外部更新暫存器 76: 0
2025-06-04 16:54:44,578 - INFO - write_register:252 - 寫入暫存器 75: 0 -> 0
2025-06-04 16:54:44,578 - INFO - setValues:75 - 外部更新暫存器 77: 0
2025-06-04 16:54:44,578 - INFO - setValues:75 - 外部更新暫存器 77: 0
2025-06-04 16:54:44,578 - INFO - write_register:252 - 寫入暫存器 76: 0 -> 0
2025-06-04 16:54:44,579 - INFO - setValues:75 - 外部更新暫存器 78: 0
2025-06-04 16:54:44,579 - INFO - setValues:75 - 外部更新暫存器 78: 0
2025-06-04 16:54:44,579 - INFO - write_register:252 - 寫入暫存器 77: 0 -> 0
2025-06-04 16:54:44,579 - INFO - setValues:75 - 外部更新暫存器 79: 0
2025-06-04 16:54:44,579 - INFO - setValues:75 - 外部更新暫存器 79: 0
2025-06-04 16:54:44,579 - INFO - write_register:252 - 寫入暫存器 78: 0 -> 0
2025-06-04 16:54:44,579 - INFO - setValues:75 - 外部更新暫存器 80: 0
2025-06-04 16:54:44,579 - INFO - setValues:75 - 外部更新暫存器 80: 0
2025-06-04 16:54:44,580 - INFO - write_register:252 - 寫入暫存器 79: 0 -> 0
2025-06-04 16:54:44,580 - INFO - setValues:75 - 外部更新暫存器 81: 0
2025-06-04 16:54:44,580 - INFO - setValues:75 - 外部更新暫存器 81: 0
2025-06-04 16:54:44,580 - INFO - write_register:252 - 寫入暫存器 80: 0 -> 0
2025-06-04 16:54:44,580 - INFO - setValues:75 - 外部更新暫存器 82: 0
2025-06-04 16:54:44,580 - INFO - setValues:75 - 外部更新暫存器 82: 0
2025-06-04 16:54:44,580 - INFO - write_register:252 - 寫入暫存器 81: 0 -> 0
2025-06-04 16:54:44,580 - INFO - setValues:75 - 外部更新暫存器 83: 0
2025-06-04 16:54:44,580 - INFO - setValues:75 - 外部更新暫存器 83: 0
2025-06-04 16:54:44,581 - INFO - write_register:252 - 寫入暫存器 82: 0 -> 0
2025-06-04 16:54:44,581 - INFO - setValues:75 - 外部更新暫存器 84: 0
2025-06-04 16:54:44,581 - INFO - setValues:75 - 外部更新暫存器 84: 0
2025-06-04 16:54:44,581 - INFO - write_register:252 - 寫入暫存器 83: 0 -> 0
2025-06-04 16:54:44,581 - INFO - setValues:75 - 外部更新暫存器 85: 0
2025-06-04 16:54:44,581 - INFO - setValues:75 - 外部更新暫存器 85: 0
2025-06-04 16:54:44,581 - INFO - write_register:252 - 寫入暫存器 84: 0 -> 0
2025-06-04 16:54:44,582 - INFO - setValues:75 - 外部更新暫存器 86: 0
2025-06-04 16:54:44,582 - INFO - setValues:75 - 外部更新暫存器 86: 0
2025-06-04 16:54:44,582 - INFO - write_register:252 - 寫入暫存器 85: 0 -> 0
2025-06-04 16:54:44,582 - INFO - setValues:75 - 外部更新暫存器 87: 0
2025-06-04 16:54:44,582 - INFO - setValues:75 - 外部更新暫存器 87: 0
2025-06-04 16:54:44,582 - INFO - write_register:252 - 寫入暫存器 86: 0 -> 0
2025-06-04 16:54:44,582 - INFO - setValues:75 - 外部更新暫存器 88: 0
2025-06-04 16:54:44,582 - INFO - setValues:75 - 外部更新暫存器 88: 0
2025-06-04 16:54:44,583 - INFO - write_register:252 - 寫入暫存器 87: 0 -> 0
2025-06-04 16:54:44,583 - INFO - setValues:75 - 外部更新暫存器 89: 0
2025-06-04 16:54:44,583 - INFO - setValues:75 - 外部更新暫存器 89: 0
2025-06-04 16:54:44,583 - INFO - write_register:252 - 寫入暫存器 88: 0 -> 0
2025-06-04 16:54:44,583 - INFO - setValues:75 - 外部更新暫存器 90: 0
2025-06-04 16:54:44,583 - INFO - setValues:75 - 外部更新暫存器 90: 0
2025-06-04 16:54:44,583 - INFO - write_register:252 - 寫入暫存器 89: 0 -> 0
2025-06-04 16:54:44,583 - INFO - setValues:75 - 外部更新暫存器 91: 0
2025-06-04 16:54:44,584 - INFO - setValues:75 - 外部更新暫存器 91: 0
2025-06-04 16:54:44,584 - INFO - write_register:252 - 寫入暫存器 90: 0 -> 0
2025-06-04 16:54:44,584 - INFO - setValues:75 - 外部更新暫存器 92: 0
2025-06-04 16:54:44,584 - INFO - setValues:75 - 外部更新暫存器 92: 0
2025-06-04 16:54:44,584 - INFO - write_register:252 - 寫入暫存器 91: 0 -> 0
2025-06-04 16:54:44,584 - INFO - setValues:75 - 外部更新暫存器 93: 0
2025-06-04 16:54:44,584 - INFO - setValues:75 - 外部更新暫存器 93: 0
2025-06-04 16:54:44,584 - INFO - write_register:252 - 寫入暫存器 92: 0 -> 0
2025-06-04 16:54:44,585 - INFO - setValues:75 - 外部更新暫存器 94: 0
2025-06-04 16:54:44,585 - INFO - setValues:75 - 外部更新暫存器 94: 0
2025-06-04 16:54:44,585 - INFO - write_register:252 - 寫入暫存器 93: 0 -> 0
2025-06-04 16:54:44,585 - INFO - setValues:75 - 外部更新暫存器 95: 0
2025-06-04 16:54:44,585 - INFO - setValues:75 - 外部更新暫存器 95: 0
2025-06-04 16:54:44,585 - INFO - write_register:252 - 寫入暫存器 94: 0 -> 0
2025-06-04 16:54:44,585 - INFO - setValues:75 - 外部更新暫存器 96: 0
2025-06-04 16:54:44,585 - INFO - setValues:75 - 外部更新暫存器 96: 0
2025-06-04 16:54:44,585 - INFO - write_register:252 - 寫入暫存器 95: 0 -> 0
2025-06-04 16:54:44,586 - INFO - setValues:75 - 外部更新暫存器 97: 0
2025-06-04 16:54:44,586 - INFO - setValues:75 - 外部更新暫存器 97: 0
2025-06-04 16:54:44,586 - INFO - write_register:252 - 寫入暫存器 96: 0 -> 0
2025-06-04 16:54:44,586 - INFO - setValues:75 - 外部更新暫存器 98: 0
2025-06-04 16:54:44,586 - INFO - setValues:75 - 外部更新暫存器 98: 0
2025-06-04 16:54:44,586 - INFO - write_register:252 - 寫入暫存器 97: 0 -> 0
2025-06-04 16:54:44,586 - INFO - setValues:75 - 外部更新暫存器 99: 0
2025-06-04 16:54:44,586 - INFO - setValues:75 - 外部更新暫存器 99: 0
2025-06-04 16:54:44,586 - INFO - write_register:252 - 寫入暫存器 98: 0 -> 0
2025-06-04 16:54:44,587 - INFO - setValues:75 - 外部更新暫存器 100: 0
2025-06-04 16:54:44,587 - INFO - setValues:75 - 外部更新暫存器 100: 0
2025-06-04 16:54:44,587 - INFO - write_register:252 - 寫入暫存器 99: 0 -> 0
2025-06-04 16:54:44,587 - INFO - setValues:75 - 外部更新暫存器 101: 0
2025-06-04 16:54:44,587 - INFO - setValues:75 - 外部更新暫存器 101: 0
2025-06-04 16:54:44,587 - INFO - write_register:252 - 寫入暫存器 100: 0 -> 0
2025-06-04 16:54:44,587 - INFO - setValues:75 - 外部更新暫存器 102: 0
2025-06-04 16:54:44,587 - INFO - setValues:75 - 外部更新暫存器 102: 0
2025-06-04 16:54:44,587 - INFO - write_register:252 - 寫入暫存器 101: 0 -> 0
2025-06-04 16:54:44,588 - INFO - setValues:75 - 外部更新暫存器 103: 0
2025-06-04 16:54:44,588 - INFO - setValues:75 - 外部更新暫存器 103: 0
2025-06-04 16:54:44,588 - INFO - write_register:252 - 寫入暫存器 102: 0 -> 0
2025-06-04 16:54:44,588 - INFO - setValues:75 - 外部更新暫存器 104: 0
2025-06-04 16:54:44,588 - INFO - setValues:75 - 外部更新暫存器 104: 0
2025-06-04 16:54:44,589 - INFO - write_register:252 - 寫入暫存器 103: 0 -> 0
2025-06-04 16:54:44,589 - INFO - setValues:75 - 外部更新暫存器 105: 0
2025-06-04 16:54:44,589 - INFO - setValues:75 - 外部更新暫存器 105: 0
2025-06-04 16:54:44,589 - INFO - write_register:252 - 寫入暫存器 104: 0 -> 0
2025-06-04 16:54:44,589 - INFO - setValues:75 - 外部更新暫存器 106: 0
2025-06-04 16:54:44,589 - INFO - setValues:75 - 外部更新暫存器 106: 0
2025-06-04 16:54:44,589 - INFO - write_register:252 - 寫入暫存器 105: 0 -> 0
2025-06-04 16:54:44,589 - INFO - setValues:75 - 外部更新暫存器 107: 0
2025-06-04 16:54:44,590 - INFO - setValues:75 - 外部更新暫存器 107: 0
2025-06-04 16:54:44,590 - INFO - write_register:252 - 寫入暫存器 106: 0 -> 0
2025-06-04 16:54:44,590 - INFO - setValues:75 - 外部更新暫存器 108: 0
2025-06-04 16:54:44,590 - INFO - setValues:75 - 外部更新暫存器 108: 0
2025-06-04 16:54:44,590 - INFO - write_register:252 - 寫入暫存器 107: 0 -> 0
2025-06-04 16:54:44,590 - INFO - setValues:75 - 外部更新暫存器 109: 0
2025-06-04 16:54:44,590 - INFO - setValues:75 - 外部更新暫存器 109: 0
2025-06-04 16:54:44,590 - INFO - write_register:252 - 寫入暫存器 108: 0 -> 0
2025-06-04 16:54:44,591 - INFO - setValues:75 - 外部更新暫存器 110: 0
2025-06-04 16:54:44,592 - INFO - setValues:75 - 外部更新暫存器 110: 0
2025-06-04 16:54:44,592 - INFO - write_register:252 - 寫入暫存器 109: 0 -> 0
2025-06-04 16:54:44,592 - INFO - setValues:75 - 外部更新暫存器 111: 0
2025-06-04 16:54:44,592 - INFO - setValues:75 - 外部更新暫存器 111: 0
2025-06-04 16:54:44,592 - INFO - write_register:252 - 寫入暫存器 110: 0 -> 0
2025-06-04 16:54:44,592 - INFO - setValues:75 - 外部更新暫存器 112: 0
2025-06-04 16:54:44,592 - INFO - setValues:75 - 外部更新暫存器 112: 0
2025-06-04 16:54:44,593 - INFO - write_register:252 - 寫入暫存器 111: 0 -> 0
2025-06-04 16:54:44,593 - INFO - setValues:75 - 外部更新暫存器 113: 0
2025-06-04 16:54:44,593 - INFO - setValues:75 - 外部更新暫存器 113: 0
2025-06-04 16:54:44,593 - INFO - write_register:252 - 寫入暫存器 112: 0 -> 0
2025-06-04 16:54:44,593 - INFO - setValues:75 - 外部更新暫存器 114: 0
2025-06-04 16:54:44,593 - INFO - setValues:75 - 外部更新暫存器 114: 0
2025-06-04 16:54:44,593 - INFO - write_register:252 - 寫入暫存器 113: 0 -> 0
2025-06-04 16:54:44,593 - INFO - setValues:75 - 外部更新暫存器 115: 0
2025-06-04 16:54:44,594 - INFO - setValues:75 - 外部更新暫存器 115: 0
2025-06-04 16:54:44,594 - INFO - write_register:252 - 寫入暫存器 114: 0 -> 0
2025-06-04 16:54:44,594 - INFO - setValues:75 - 外部更新暫存器 116: 0
2025-06-04 16:54:44,594 - INFO - setValues:75 - 外部更新暫存器 116: 0
2025-06-04 16:54:44,594 - INFO - write_register:252 - 寫入暫存器 115: 0 -> 0
2025-06-04 16:54:44,594 - INFO - setValues:75 - 外部更新暫存器 117: 0
2025-06-04 16:54:44,594 - INFO - setValues:75 - 外部更新暫存器 117: 0
2025-06-04 16:54:44,594 - INFO - write_register:252 - 寫入暫存器 116: 0 -> 0
2025-06-04 16:54:44,595 - INFO - setValues:75 - 外部更新暫存器 118: 0
2025-06-04 16:54:44,595 - INFO - setValues:75 - 外部更新暫存器 118: 0
2025-06-04 16:54:44,595 - INFO - write_register:252 - 寫入暫存器 117: 0 -> 0
2025-06-04 16:54:44,595 - INFO - setValues:75 - 外部更新暫存器 119: 0
2025-06-04 16:54:44,595 - INFO - setValues:75 - 外部更新暫存器 119: 0
2025-06-04 16:54:44,595 - INFO - write_register:252 - 寫入暫存器 118: 0 -> 0
2025-06-04 16:54:44,595 - INFO - setValues:75 - 外部更新暫存器 120: 0
2025-06-04 16:54:44,595 - INFO - setValues:75 - 外部更新暫存器 120: 0
2025-06-04 16:54:44,596 - INFO - write_register:252 - 寫入暫存器 119: 0 -> 0
2025-06-04 16:54:44,596 - INFO - setValues:75 - 外部更新暫存器 121: 0
2025-06-04 16:54:44,596 - INFO - setValues:75 - 外部更新暫存器 121: 0
2025-06-04 16:54:44,596 - INFO - write_register:252 - 寫入暫存器 120: 0 -> 0
2025-06-04 16:54:44,596 - INFO - setValues:75 - 外部更新暫存器 122: 0
2025-06-04 16:54:44,596 - INFO - setValues:75 - 外部更新暫存器 122: 0
2025-06-04 16:54:44,596 - INFO - write_register:252 - 寫入暫存器 121: 0 -> 0
2025-06-04 16:54:44,597 - INFO - setValues:75 - 外部更新暫存器 123: 0
2025-06-04 16:54:44,597 - INFO - setValues:75 - 外部更新暫存器 123: 0
2025-06-04 16:54:44,597 - INFO - write_register:252 - 寫入暫存器 122: 0 -> 0
2025-06-04 16:54:44,597 - INFO - setValues:75 - 外部更新暫存器 124: 0
2025-06-04 16:54:44,597 - INFO - setValues:75 - 外部更新暫存器 124: 0
2025-06-04 16:54:44,597 - INFO - write_register:252 - 寫入暫存器 123: 0 -> 0
2025-06-04 16:54:44,597 - INFO - setValues:75 - 外部更新暫存器 125: 0
2025-06-04 16:54:44,597 - INFO - setValues:75 - 外部更新暫存器 125: 0
2025-06-04 16:54:44,597 - INFO - write_register:252 - 寫入暫存器 124: 0 -> 0
2025-06-04 16:54:44,598 - INFO - setValues:75 - 外部更新暫存器 126: 0
2025-06-04 16:54:44,598 - INFO - setValues:75 - 外部更新暫存器 126: 0
2025-06-04 16:54:44,598 - INFO - write_register:252 - 寫入暫存器 125: 0 -> 0
2025-06-04 16:54:44,598 - INFO - setValues:75 - 外部更新暫存器 127: 0
2025-06-04 16:54:44,598 - INFO - setValues:75 - 外部更新暫存器 127: 0
2025-06-04 16:54:44,598 - INFO - write_register:252 - 寫入暫存器 126: 0 -> 0
2025-06-04 16:54:44,598 - INFO - setValues:75 - 外部更新暫存器 128: 0
2025-06-04 16:54:44,599 - INFO - setValues:75 - 外部更新暫存器 128: 0
2025-06-04 16:54:44,599 - INFO - write_register:252 - 寫入暫存器 127: 0 -> 0
2025-06-04 16:54:44,599 - INFO - setValues:75 - 外部更新暫存器 129: 0
2025-06-04 16:54:44,599 - INFO - setValues:75 - 外部更新暫存器 129: 0
2025-06-04 16:54:44,599 - INFO - write_register:252 - 寫入暫存器 128: 0 -> 0
2025-06-04 16:54:44,599 - INFO - setValues:75 - 外部更新暫存器 130: 0
2025-06-04 16:54:44,599 - INFO - setValues:75 - 外部更新暫存器 130: 0
2025-06-04 16:54:44,599 - INFO - write_register:252 - 寫入暫存器 129: 0 -> 0
2025-06-04 16:54:44,599 - INFO - setValues:75 - 外部更新暫存器 131: 0
2025-06-04 16:54:44,600 - INFO - setValues:75 - 外部更新暫存器 131: 0
2025-06-04 16:54:44,600 - INFO - write_register:252 - 寫入暫存器 130: 0 -> 0
2025-06-04 16:54:44,600 - INFO - setValues:75 - 外部更新暫存器 132: 0
2025-06-04 16:54:44,600 - INFO - setValues:75 - 外部更新暫存器 132: 0
2025-06-04 16:54:44,600 - INFO - write_register:252 - 寫入暫存器 131: 0 -> 0
2025-06-04 16:54:44,600 - INFO - setValues:75 - 外部更新暫存器 133: 0
2025-06-04 16:54:44,600 - INFO - setValues:75 - 外部更新暫存器 133: 0
2025-06-04 16:54:44,600 - INFO - write_register:252 - 寫入暫存器 132: 0 -> 0
2025-06-04 16:54:44,601 - INFO - setValues:75 - 外部更新暫存器 134: 0
2025-06-04 16:54:44,601 - INFO - setValues:75 - 外部更新暫存器 134: 0
2025-06-04 16:54:44,601 - INFO - write_register:252 - 寫入暫存器 133: 0 -> 0
2025-06-04 16:54:44,601 - INFO - setValues:75 - 外部更新暫存器 135: 0
2025-06-04 16:54:44,601 - INFO - setValues:75 - 外部更新暫存器 135: 0
2025-06-04 16:54:44,601 - INFO - write_register:252 - 寫入暫存器 134: 0 -> 0
2025-06-04 16:54:44,601 - INFO - setValues:75 - 外部更新暫存器 136: 0
2025-06-04 16:54:44,601 - INFO - setValues:75 - 外部更新暫存器 136: 0
2025-06-04 16:54:44,601 - INFO - write_register:252 - 寫入暫存器 135: 0 -> 0
2025-06-04 16:54:44,602 - INFO - setValues:75 - 外部更新暫存器 137: 0
2025-06-04 16:54:44,602 - INFO - setValues:75 - 外部更新暫存器 137: 0
2025-06-04 16:54:44,602 - INFO - write_register:252 - 寫入暫存器 136: 0 -> 0
2025-06-04 16:54:44,602 - INFO - setValues:75 - 外部更新暫存器 138: 0
2025-06-04 16:54:44,602 - INFO - setValues:75 - 外部更新暫存器 138: 0
2025-06-04 16:54:44,602 - INFO - write_register:252 - 寫入暫存器 137: 0 -> 0
2025-06-04 16:54:44,602 - INFO - setValues:75 - 外部更新暫存器 139: 0
2025-06-04 16:54:44,602 - INFO - setValues:75 - 外部更新暫存器 139: 0
2025-06-04 16:54:44,602 - INFO - write_register:252 - 寫入暫存器 138: 0 -> 0
2025-06-04 16:54:44,603 - INFO - setValues:75 - 外部更新暫存器 140: 0
2025-06-04 16:54:44,603 - INFO - setValues:75 - 外部更新暫存器 140: 0
2025-06-04 16:54:44,603 - INFO - write_register:252 - 寫入暫存器 139: 0 -> 0
2025-06-04 16:54:44,603 - INFO - setValues:75 - 外部更新暫存器 141: 0
2025-06-04 16:54:44,603 - INFO - setValues:75 - 外部更新暫存器 141: 0
2025-06-04 16:54:44,603 - INFO - write_register:252 - 寫入暫存器 140: 0 -> 0
2025-06-04 16:54:44,603 - INFO - setValues:75 - 外部更新暫存器 142: 0
2025-06-04 16:54:44,603 - INFO - setValues:75 - 外部更新暫存器 142: 0
2025-06-04 16:54:44,603 - INFO - write_register:252 - 寫入暫存器 141: 0 -> 0
2025-06-04 16:54:44,604 - INFO - setValues:75 - 外部更新暫存器 143: 0
2025-06-04 16:54:44,604 - INFO - setValues:75 - 外部更新暫存器 143: 0
2025-06-04 16:54:44,604 - INFO - write_register:252 - 寫入暫存器 142: 0 -> 0
2025-06-04 16:54:44,604 - INFO - setValues:75 - 外部更新暫存器 144: 0
2025-06-04 16:54:44,604 - INFO - setValues:75 - 外部更新暫存器 144: 0
2025-06-04 16:54:44,604 - INFO - write_register:252 - 寫入暫存器 143: 0 -> 0
2025-06-04 16:54:44,604 - INFO - setValues:75 - 外部更新暫存器 145: 0
2025-06-04 16:54:44,605 - INFO - setValues:75 - 外部更新暫存器 145: 0
2025-06-04 16:54:44,605 - INFO - write_register:252 - 寫入暫存器 144: 0 -> 0
2025-06-04 16:54:44,605 - INFO - setValues:75 - 外部更新暫存器 146: 0
2025-06-04 16:54:44,605 - INFO - setValues:75 - 外部更新暫存器 146: 0
2025-06-04 16:54:44,605 - INFO - write_register:252 - 寫入暫存器 145: 0 -> 0
2025-06-04 16:54:44,605 - INFO - setValues:75 - 外部更新暫存器 147: 0
2025-06-04 16:54:44,606 - INFO - setValues:75 - 外部更新暫存器 147: 0
2025-06-04 16:54:44,606 - INFO - write_register:252 - 寫入暫存器 146: 0 -> 0
2025-06-04 16:54:44,606 - INFO - setValues:75 - 外部更新暫存器 148: 0
2025-06-04 16:54:44,606 - INFO - setValues:75 - 外部更新暫存器 148: 0
2025-06-04 16:54:44,606 - INFO - write_register:252 - 寫入暫存器 147: 0 -> 0
2025-06-04 16:54:44,606 - INFO - setValues:75 - 外部更新暫存器 149: 0
2025-06-04 16:54:44,606 - INFO - setValues:75 - 外部更新暫存器 149: 0
2025-06-04 16:54:44,606 - INFO - write_register:252 - 寫入暫存器 148: 0 -> 0
2025-06-04 16:54:44,607 - INFO - setValues:75 - 外部更新暫存器 150: 0
2025-06-04 16:54:44,608 - INFO - setValues:75 - 外部更新暫存器 150: 0
2025-06-04 16:54:44,608 - INFO - write_register:252 - 寫入暫存器 149: 0 -> 0
2025-06-04 16:54:44,608 - INFO - setValues:75 - 外部更新暫存器 151: 0
2025-06-04 16:54:44,608 - INFO - setValues:75 - 外部更新暫存器 151: 0
2025-06-04 16:54:44,608 - INFO - write_register:252 - 寫入暫存器 150: 0 -> 0
2025-06-04 16:54:44,608 - INFO - setValues:75 - 外部更新暫存器 152: 0
2025-06-04 16:54:44,608 - INFO - setValues:75 - 外部更新暫存器 152: 0
2025-06-04 16:54:44,609 - INFO - write_register:252 - 寫入暫存器 151: 0 -> 0
2025-06-04 16:54:44,609 - INFO - setValues:75 - 外部更新暫存器 153: 0
2025-06-04 16:54:44,609 - INFO - setValues:75 - 外部更新暫存器 153: 0
2025-06-04 16:54:44,609 - INFO - write_register:252 - 寫入暫存器 152: 0 -> 0
2025-06-04 16:54:44,609 - INFO - setValues:75 - 外部更新暫存器 154: 0
2025-06-04 16:54:44,609 - INFO - setValues:75 - 外部更新暫存器 154: 0
2025-06-04 16:54:44,609 - INFO - write_register:252 - 寫入暫存器 153: 0 -> 0
2025-06-04 16:54:44,609 - INFO - setValues:75 - 外部更新暫存器 155: 0
2025-06-04 16:54:44,610 - INFO - setValues:75 - 外部更新暫存器 155: 0
2025-06-04 16:54:44,610 - INFO - write_register:252 - 寫入暫存器 154: 0 -> 0
2025-06-04 16:54:44,610 - INFO - setValues:75 - 外部更新暫存器 156: 0
2025-06-04 16:54:44,610 - INFO - setValues:75 - 外部更新暫存器 156: 0
2025-06-04 16:54:44,610 - INFO - write_register:252 - 寫入暫存器 155: 0 -> 0
2025-06-04 16:54:44,610 - INFO - setValues:75 - 外部更新暫存器 157: 0
2025-06-04 16:54:44,610 - INFO - setValues:75 - 外部更新暫存器 157: 0
2025-06-04 16:54:44,610 - INFO - write_register:252 - 寫入暫存器 156: 0 -> 0
2025-06-04 16:54:44,611 - INFO - setValues:75 - 外部更新暫存器 158: 0
2025-06-04 16:54:44,611 - INFO - setValues:75 - 外部更新暫存器 158: 0
2025-06-04 16:54:44,611 - INFO - write_register:252 - 寫入暫存器 157: 0 -> 0
2025-06-04 16:54:44,611 - INFO - setValues:75 - 外部更新暫存器 159: 0
2025-06-04 16:54:44,611 - INFO - setValues:75 - 外部更新暫存器 159: 0
2025-06-04 16:54:44,611 - INFO - write_register:252 - 寫入暫存器 158: 0 -> 0
2025-06-04 16:54:44,611 - INFO - setValues:75 - 外部更新暫存器 160: 0
2025-06-04 16:54:44,611 - INFO - setValues:75 - 外部更新暫存器 160: 0
2025-06-04 16:54:44,612 - INFO - write_register:252 - 寫入暫存器 159: 0 -> 0
2025-06-04 16:54:44,612 - INFO - setValues:75 - 外部更新暫存器 161: 0
2025-06-04 16:54:44,612 - INFO - setValues:75 - 外部更新暫存器 161: 0
2025-06-04 16:54:44,612 - INFO - write_register:252 - 寫入暫存器 160: 0 -> 0
2025-06-04 16:54:44,612 - INFO - setValues:75 - 外部更新暫存器 162: 0
2025-06-04 16:54:44,612 - INFO - setValues:75 - 外部更新暫存器 162: 0
2025-06-04 16:54:44,612 - INFO - write_register:252 - 寫入暫存器 161: 0 -> 0
2025-06-04 16:54:44,612 - INFO - setValues:75 - 外部更新暫存器 163: 0
2025-06-04 16:54:44,612 - INFO - setValues:75 - 外部更新暫存器 163: 0
2025-06-04 16:54:44,613 - INFO - write_register:252 - 寫入暫存器 162: 0 -> 0
2025-06-04 16:54:44,613 - INFO - setValues:75 - 外部更新暫存器 164: 0
2025-06-04 16:54:44,613 - INFO - setValues:75 - 外部更新暫存器 164: 0
2025-06-04 16:54:44,613 - INFO - write_register:252 - 寫入暫存器 163: 0 -> 0
2025-06-04 16:54:44,613 - INFO - setValues:75 - 外部更新暫存器 165: 0
2025-06-04 16:54:44,613 - INFO - setValues:75 - 外部更新暫存器 165: 0
2025-06-04 16:54:44,614 - INFO - write_register:252 - 寫入暫存器 164: 0 -> 0
2025-06-04 16:54:44,614 - INFO - setValues:75 - 外部更新暫存器 166: 0
2025-06-04 16:54:44,614 - INFO - setValues:75 - 外部更新暫存器 166: 0
2025-06-04 16:54:44,614 - INFO - write_register:252 - 寫入暫存器 165: 0 -> 0
2025-06-04 16:54:44,614 - INFO - setValues:75 - 外部更新暫存器 167: 0
2025-06-04 16:54:44,614 - INFO - setValues:75 - 外部更新暫存器 167: 0
2025-06-04 16:54:44,614 - INFO - write_register:252 - 寫入暫存器 166: 0 -> 0
2025-06-04 16:54:44,614 - INFO - setValues:75 - 外部更新暫存器 168: 0
2025-06-04 16:54:44,615 - INFO - setValues:75 - 外部更新暫存器 168: 0
2025-06-04 16:54:44,615 - INFO - write_register:252 - 寫入暫存器 167: 0 -> 0
2025-06-04 16:54:44,615 - INFO - setValues:75 - 外部更新暫存器 169: 0
2025-06-04 16:54:44,615 - INFO - setValues:75 - 外部更新暫存器 169: 0
2025-06-04 16:54:44,615 - INFO - write_register:252 - 寫入暫存器 168: 0 -> 0
2025-06-04 16:54:44,615 - INFO - setValues:75 - 外部更新暫存器 170: 0
2025-06-04 16:54:44,615 - INFO - setValues:75 - 外部更新暫存器 170: 0
2025-06-04 16:54:44,615 - INFO - write_register:252 - 寫入暫存器 169: 0 -> 0
2025-06-04 16:54:44,616 - INFO - setValues:75 - 外部更新暫存器 171: 0
2025-06-04 16:54:44,616 - INFO - setValues:75 - 外部更新暫存器 171: 0
2025-06-04 16:54:44,616 - INFO - write_register:252 - 寫入暫存器 170: 0 -> 0
2025-06-04 16:54:44,616 - INFO - setValues:75 - 外部更新暫存器 172: 0
2025-06-04 16:54:44,616 - INFO - setValues:75 - 外部更新暫存器 172: 0
2025-06-04 16:54:44,616 - INFO - write_register:252 - 寫入暫存器 171: 0 -> 0
2025-06-04 16:54:44,616 - INFO - setValues:75 - 外部更新暫存器 173: 0
2025-06-04 16:54:44,616 - INFO - setValues:75 - 外部更新暫存器 173: 0
2025-06-04 16:54:44,616 - INFO - write_register:252 - 寫入暫存器 172: 0 -> 0
2025-06-04 16:54:44,617 - INFO - setValues:75 - 外部更新暫存器 174: 0
2025-06-04 16:54:44,617 - INFO - setValues:75 - 外部更新暫存器 174: 0
2025-06-04 16:54:44,617 - INFO - write_register:252 - 寫入暫存器 173: 0 -> 0
2025-06-04 16:54:44,617 - INFO - setValues:75 - 外部更新暫存器 175: 0
2025-06-04 16:54:44,617 - INFO - setValues:75 - 外部更新暫存器 175: 0
2025-06-04 16:54:44,617 - INFO - write_register:252 - 寫入暫存器 174: 0 -> 0
2025-06-04 16:54:44,617 - INFO - setValues:75 - 外部更新暫存器 176: 0
2025-06-04 16:54:44,618 - INFO - setValues:75 - 外部更新暫存器 176: 0
2025-06-04 16:54:44,618 - INFO - write_register:252 - 寫入暫存器 175: 0 -> 0
2025-06-04 16:54:44,618 - INFO - setValues:75 - 外部更新暫存器 177: 0
2025-06-04 16:54:44,618 - INFO - setValues:75 - 外部更新暫存器 177: 0
2025-06-04 16:54:44,618 - INFO - write_register:252 - 寫入暫存器 176: 0 -> 0
2025-06-04 16:54:44,618 - INFO - setValues:75 - 外部更新暫存器 178: 0
2025-06-04 16:54:44,618 - INFO - setValues:75 - 外部更新暫存器 178: 0
2025-06-04 16:54:44,618 - INFO - write_register:252 - 寫入暫存器 177: 0 -> 0
2025-06-04 16:54:44,618 - INFO - setValues:75 - 外部更新暫存器 179: 0
2025-06-04 16:54:44,619 - INFO - setValues:75 - 外部更新暫存器 179: 0
2025-06-04 16:54:44,619 - INFO - write_register:252 - 寫入暫存器 178: 0 -> 0
2025-06-04 16:54:44,619 - INFO - setValues:75 - 外部更新暫存器 180: 0
2025-06-04 16:54:44,619 - INFO - setValues:75 - 外部更新暫存器 180: 0
2025-06-04 16:54:44,619 - INFO - write_register:252 - 寫入暫存器 179: 0 -> 0
2025-06-04 16:54:44,619 - INFO - setValues:75 - 外部更新暫存器 181: 0
2025-06-04 16:54:44,619 - INFO - setValues:75 - 外部更新暫存器 181: 0
2025-06-04 16:54:44,619 - INFO - write_register:252 - 寫入暫存器 180: 0 -> 0
2025-06-04 16:54:44,619 - INFO - setValues:75 - 外部更新暫存器 182: 0
2025-06-04 16:54:44,620 - INFO - setValues:75 - 外部更新暫存器 182: 0
2025-06-04 16:54:44,620 - INFO - write_register:252 - 寫入暫存器 181: 0 -> 0
2025-06-04 16:54:44,620 - INFO - setValues:75 - 外部更新暫存器 183: 0
2025-06-04 16:54:44,620 - INFO - setValues:75 - 外部更新暫存器 183: 0
2025-06-04 16:54:44,620 - INFO - write_register:252 - 寫入暫存器 182: 0 -> 0
2025-06-04 16:54:44,620 - INFO - setValues:75 - 外部更新暫存器 184: 0
2025-06-04 16:54:44,620 - INFO - setValues:75 - 外部更新暫存器 184: 0
2025-06-04 16:54:44,620 - INFO - write_register:252 - 寫入暫存器 183: 0 -> 0
2025-06-04 16:54:44,621 - INFO - setValues:75 - 外部更新暫存器 185: 0
2025-06-04 16:54:44,621 - INFO - setValues:75 - 外部更新暫存器 185: 0
2025-06-04 16:54:44,621 - INFO - write_register:252 - 寫入暫存器 184: 0 -> 0
2025-06-04 16:54:44,621 - INFO - setValues:75 - 外部更新暫存器 186: 0
2025-06-04 16:54:44,621 - INFO - setValues:75 - 外部更新暫存器 186: 0
2025-06-04 16:54:44,622 - INFO - write_register:252 - 寫入暫存器 185: 0 -> 0
2025-06-04 16:54:44,622 - INFO - setValues:75 - 外部更新暫存器 187: 0
2025-06-04 16:54:44,622 - INFO - setValues:75 - 外部更新暫存器 187: 0
2025-06-04 16:54:44,622 - INFO - write_register:252 - 寫入暫存器 186: 0 -> 0
2025-06-04 16:54:44,622 - INFO - setValues:75 - 外部更新暫存器 188: 0
2025-06-04 16:54:44,622 - INFO - setValues:75 - 外部更新暫存器 188: 0
2025-06-04 16:54:44,622 - INFO - write_register:252 - 寫入暫存器 187: 0 -> 0
2025-06-04 16:54:44,622 - INFO - setValues:75 - 外部更新暫存器 189: 0
2025-06-04 16:54:44,623 - INFO - setValues:75 - 外部更新暫存器 189: 0
2025-06-04 16:54:44,624 - INFO - write_register:252 - 寫入暫存器 188: 0 -> 0
2025-06-04 16:54:44,624 - INFO - setValues:75 - 外部更新暫存器 190: 0
2025-06-04 16:54:44,624 - INFO - setValues:75 - 外部更新暫存器 190: 0
2025-06-04 16:54:44,624 - INFO - write_register:252 - 寫入暫存器 189: 0 -> 0
2025-06-04 16:54:44,624 - INFO - setValues:75 - 外部更新暫存器 191: 0
2025-06-04 16:54:44,624 - INFO - setValues:75 - 外部更新暫存器 191: 0
2025-06-04 16:54:44,624 - INFO - write_register:252 - 寫入暫存器 190: 0 -> 0
2025-06-04 16:54:44,625 - INFO - setValues:75 - 外部更新暫存器 192: 0
2025-06-04 16:54:44,625 - INFO - setValues:75 - 外部更新暫存器 192: 0
2025-06-04 16:54:44,625 - INFO - write_register:252 - 寫入暫存器 191: 0 -> 0
2025-06-04 16:54:44,625 - INFO - setValues:75 - 外部更新暫存器 193: 0
2025-06-04 16:54:44,625 - INFO - setValues:75 - 外部更新暫存器 193: 0
2025-06-04 16:54:44,625 - INFO - write_register:252 - 寫入暫存器 192: 0 -> 0
2025-06-04 16:54:44,625 - INFO - setValues:75 - 外部更新暫存器 194: 0
2025-06-04 16:54:44,625 - INFO - setValues:75 - 外部更新暫存器 194: 0
2025-06-04 16:54:44,626 - INFO - write_register:252 - 寫入暫存器 193: 0 -> 0
2025-06-04 16:54:44,626 - INFO - setValues:75 - 外部更新暫存器 195: 0
2025-06-04 16:54:44,626 - INFO - setValues:75 - 外部更新暫存器 195: 0
2025-06-04 16:54:44,626 - INFO - write_register:252 - 寫入暫存器 194: 0 -> 0
2025-06-04 16:54:44,626 - INFO - setValues:75 - 外部更新暫存器 196: 0
2025-06-04 16:54:44,626 - INFO - setValues:75 - 外部更新暫存器 196: 0
2025-06-04 16:54:44,626 - INFO - write_register:252 - 寫入暫存器 195: 0 -> 0
2025-06-04 16:54:44,626 - INFO - setValues:75 - 外部更新暫存器 197: 0
2025-06-04 16:54:44,626 - INFO - setValues:75 - 外部更新暫存器 197: 0
2025-06-04 16:54:44,627 - INFO - write_register:252 - 寫入暫存器 196: 0 -> 0
2025-06-04 16:54:44,627 - INFO - setValues:75 - 外部更新暫存器 198: 0
2025-06-04 16:54:44,627 - INFO - setValues:75 - 外部更新暫存器 198: 0
2025-06-04 16:54:44,627 - INFO - write_register:252 - 寫入暫存器 197: 0 -> 0
2025-06-04 16:54:44,627 - INFO - setValues:75 - 外部更新暫存器 199: 0
2025-06-04 16:54:44,627 - INFO - setValues:75 - 外部更新暫存器 199: 0
2025-06-04 16:54:44,627 - INFO - write_register:252 - 寫入暫存器 198: 0 -> 0
2025-06-04 16:54:44,627 - INFO - setValues:75 - 外部更新暫存器 200: 0
2025-06-04 16:54:44,628 - INFO - setValues:75 - 外部更新暫存器 200: 0
2025-06-04 16:54:44,628 - INFO - write_register:252 - 寫入暫存器 199: 0 -> 0
2025-06-04 16:54:44,628 - INFO - setValues:75 - 外部更新暫存器 201: 0
2025-06-04 16:54:44,628 - INFO - setValues:75 - 外部更新暫存器 201: 0
2025-06-04 16:54:44,628 - INFO - write_register:252 - 寫入暫存器 200: 0 -> 0
2025-06-04 16:54:44,628 - INFO - setValues:75 - 外部更新暫存器 202: 0
2025-06-04 16:54:44,628 - INFO - setValues:75 - 外部更新暫存器 202: 0
2025-06-04 16:54:44,628 - INFO - write_register:252 - 寫入暫存器 201: 0 -> 0
2025-06-04 16:54:44,629 - INFO - setValues:75 - 外部更新暫存器 203: 0
2025-06-04 16:54:44,629 - INFO - setValues:75 - 外部更新暫存器 203: 0
2025-06-04 16:54:44,629 - INFO - write_register:252 - 寫入暫存器 202: 0 -> 0
2025-06-04 16:54:44,629 - INFO - setValues:75 - 外部更新暫存器 204: 0
2025-06-04 16:54:44,629 - INFO - setValues:75 - 外部更新暫存器 204: 0
2025-06-04 16:54:44,629 - INFO - write_register:252 - 寫入暫存器 203: 0 -> 0
2025-06-04 16:54:44,629 - INFO - setValues:75 - 外部更新暫存器 205: 0
2025-06-04 16:54:44,630 - INFO - setValues:75 - 外部更新暫存器 205: 0
2025-06-04 16:54:44,630 - INFO - write_register:252 - 寫入暫存器 204: 0 -> 0
2025-06-04 16:54:44,630 - INFO - setValues:75 - 外部更新暫存器 206: 0
2025-06-04 16:54:44,630 - INFO - setValues:75 - 外部更新暫存器 206: 0
2025-06-04 16:54:44,630 - INFO - write_register:252 - 寫入暫存器 205: 0 -> 0
2025-06-04 16:54:44,630 - INFO - setValues:75 - 外部更新暫存器 207: 0
2025-06-04 16:54:44,630 - INFO - setValues:75 - 外部更新暫存器 207: 0
2025-06-04 16:54:44,630 - INFO - write_register:252 - 寫入暫存器 206: 0 -> 0
2025-06-04 16:54:44,631 - INFO - setValues:75 - 外部更新暫存器 208: 0
2025-06-04 16:54:44,631 - INFO - setValues:75 - 外部更新暫存器 208: 0
2025-06-04 16:54:44,631 - INFO - write_register:252 - 寫入暫存器 207: 0 -> 0
2025-06-04 16:54:44,631 - INFO - setValues:75 - 外部更新暫存器 209: 0
2025-06-04 16:54:44,631 - INFO - setValues:75 - 外部更新暫存器 209: 0
2025-06-04 16:54:44,631 - INFO - write_register:252 - 寫入暫存器 208: 0 -> 0
2025-06-04 16:54:44,631 - INFO - setValues:75 - 外部更新暫存器 210: 0
2025-06-04 16:54:44,631 - INFO - setValues:75 - 外部更新暫存器 210: 0
2025-06-04 16:54:44,632 - INFO - write_register:252 - 寫入暫存器 209: 0 -> 0
2025-06-04 16:54:44,632 - INFO - setValues:75 - 外部更新暫存器 211: 0
2025-06-04 16:54:44,632 - INFO - setValues:75 - 外部更新暫存器 211: 0
2025-06-04 16:54:44,632 - INFO - write_register:252 - 寫入暫存器 210: 0 -> 0
2025-06-04 16:54:44,632 - INFO - setValues:75 - 外部更新暫存器 212: 0
2025-06-04 16:54:44,632 - INFO - setValues:75 - 外部更新暫存器 212: 0
2025-06-04 16:54:44,632 - INFO - write_register:252 - 寫入暫存器 211: 0 -> 0
2025-06-04 16:54:44,632 - INFO - setValues:75 - 外部更新暫存器 213: 0
2025-06-04 16:54:44,632 - INFO - setValues:75 - 外部更新暫存器 213: 0
2025-06-04 16:54:44,633 - INFO - write_register:252 - 寫入暫存器 212: 0 -> 0
2025-06-04 16:54:44,633 - INFO - setValues:75 - 外部更新暫存器 214: 0
2025-06-04 16:54:44,633 - INFO - setValues:75 - 外部更新暫存器 214: 0
2025-06-04 16:54:44,633 - INFO - write_register:252 - 寫入暫存器 213: 0 -> 0
2025-06-04 16:54:44,633 - INFO - setValues:75 - 外部更新暫存器 215: 0
2025-06-04 16:54:44,633 - INFO - setValues:75 - 外部更新暫存器 215: 0
2025-06-04 16:54:44,633 - INFO - write_register:252 - 寫入暫存器 214: 0 -> 0
2025-06-04 16:54:44,633 - INFO - setValues:75 - 外部更新暫存器 216: 0
2025-06-04 16:54:44,633 - INFO - setValues:75 - 外部更新暫存器 216: 0
2025-06-04 16:54:44,634 - INFO - write_register:252 - 寫入暫存器 215: 0 -> 0
2025-06-04 16:54:44,634 - INFO - setValues:75 - 外部更新暫存器 217: 0
2025-06-04 16:54:44,634 - INFO - setValues:75 - 外部更新暫存器 217: 0
2025-06-04 16:54:44,634 - INFO - write_register:252 - 寫入暫存器 216: 0 -> 0
2025-06-04 16:54:44,634 - INFO - setValues:75 - 外部更新暫存器 218: 0
2025-06-04 16:54:44,634 - INFO - setValues:75 - 外部更新暫存器 218: 0
2025-06-04 16:54:44,634 - INFO - write_register:252 - 寫入暫存器 217: 0 -> 0
2025-06-04 16:54:44,634 - INFO - setValues:75 - 外部更新暫存器 219: 0
2025-06-04 16:54:44,634 - INFO - setValues:75 - 外部更新暫存器 219: 0
2025-06-04 16:54:44,635 - INFO - write_register:252 - 寫入暫存器 218: 0 -> 0
2025-06-04 16:54:44,635 - INFO - setValues:75 - 外部更新暫存器 220: 0
2025-06-04 16:54:44,635 - INFO - setValues:75 - 外部更新暫存器 220: 0
2025-06-04 16:54:44,635 - INFO - write_register:252 - 寫入暫存器 219: 0 -> 0
2025-06-04 16:54:44,635 - INFO - setValues:75 - 外部更新暫存器 221: 0
2025-06-04 16:54:44,635 - INFO - setValues:75 - 外部更新暫存器 221: 0
2025-06-04 16:54:44,635 - INFO - write_register:252 - 寫入暫存器 220: 0 -> 0
2025-06-04 16:54:44,635 - INFO - setValues:75 - 外部更新暫存器 222: 0
2025-06-04 16:54:44,635 - INFO - setValues:75 - 外部更新暫存器 222: 0
2025-06-04 16:54:44,636 - INFO - write_register:252 - 寫入暫存器 221: 0 -> 0
2025-06-04 16:54:44,636 - INFO - setValues:75 - 外部更新暫存器 223: 0
2025-06-04 16:54:44,636 - INFO - setValues:75 - 外部更新暫存器 223: 0
2025-06-04 16:54:44,636 - INFO - write_register:252 - 寫入暫存器 222: 0 -> 0
2025-06-04 16:54:44,636 - INFO - setValues:75 - 外部更新暫存器 224: 0
2025-06-04 16:54:44,636 - INFO - setValues:75 - 外部更新暫存器 224: 0
2025-06-04 16:54:44,636 - INFO - write_register:252 - 寫入暫存器 223: 0 -> 0
2025-06-04 16:54:44,636 - INFO - setValues:75 - 外部更新暫存器 225: 0
2025-06-04 16:54:44,637 - INFO - setValues:75 - 外部更新暫存器 225: 0
2025-06-04 16:54:44,637 - INFO - write_register:252 - 寫入暫存器 224: 0 -> 0
2025-06-04 16:54:44,637 - INFO - setValues:75 - 外部更新暫存器 226: 0
2025-06-04 16:54:44,637 - INFO - setValues:75 - 外部更新暫存器 226: 0
2025-06-04 16:54:44,637 - INFO - write_register:252 - 寫入暫存器 225: 0 -> 0
2025-06-04 16:54:44,637 - INFO - setValues:75 - 外部更新暫存器 227: 0
2025-06-04 16:54:44,638 - INFO - setValues:75 - 外部更新暫存器 227: 0
2025-06-04 16:54:44,638 - INFO - write_register:252 - 寫入暫存器 226: 0 -> 0
2025-06-04 16:54:44,638 - INFO - setValues:75 - 外部更新暫存器 228: 0
2025-06-04 16:54:44,638 - INFO - setValues:75 - 外部更新暫存器 228: 0
2025-06-04 16:54:44,638 - INFO - write_register:252 - 寫入暫存器 227: 0 -> 0
2025-06-04 16:54:44,638 - INFO - setValues:75 - 外部更新暫存器 229: 0
2025-06-04 16:54:44,638 - INFO - setValues:75 - 外部更新暫存器 229: 0
2025-06-04 16:54:44,639 - INFO - write_register:252 - 寫入暫存器 228: 0 -> 0
2025-06-04 16:54:44,640 - INFO - setValues:75 - 外部更新暫存器 230: 0
2025-06-04 16:54:44,640 - INFO - setValues:75 - 外部更新暫存器 230: 0
2025-06-04 16:54:44,640 - INFO - write_register:252 - 寫入暫存器 229: 0 -> 0
2025-06-04 16:54:44,640 - INFO - setValues:75 - 外部更新暫存器 231: 0
2025-06-04 16:54:44,640 - INFO - setValues:75 - 外部更新暫存器 231: 0
2025-06-04 16:54:44,640 - INFO - write_register:252 - 寫入暫存器 230: 0 -> 0
2025-06-04 16:54:44,640 - INFO - setValues:75 - 外部更新暫存器 232: 0
2025-06-04 16:54:44,640 - INFO - setValues:75 - 外部更新暫存器 232: 0
2025-06-04 16:54:44,641 - INFO - write_register:252 - 寫入暫存器 231: 0 -> 0
2025-06-04 16:54:44,641 - INFO - setValues:75 - 外部更新暫存器 233: 0
2025-06-04 16:54:44,641 - INFO - setValues:75 - 外部更新暫存器 233: 0
2025-06-04 16:54:44,641 - INFO - write_register:252 - 寫入暫存器 232: 0 -> 0
2025-06-04 16:54:44,641 - INFO - setValues:75 - 外部更新暫存器 234: 0
2025-06-04 16:54:44,641 - INFO - setValues:75 - 外部更新暫存器 234: 0
2025-06-04 16:54:44,641 - INFO - write_register:252 - 寫入暫存器 233: 0 -> 0
2025-06-04 16:54:44,641 - INFO - setValues:75 - 外部更新暫存器 235: 0
2025-06-04 16:54:44,642 - INFO - setValues:75 - 外部更新暫存器 235: 0
2025-06-04 16:54:44,642 - INFO - write_register:252 - 寫入暫存器 234: 0 -> 0
2025-06-04 16:54:44,642 - INFO - setValues:75 - 外部更新暫存器 236: 0
2025-06-04 16:54:44,642 - INFO - setValues:75 - 外部更新暫存器 236: 0
2025-06-04 16:54:44,642 - INFO - write_register:252 - 寫入暫存器 235: 0 -> 0
2025-06-04 16:54:44,642 - INFO - setValues:75 - 外部更新暫存器 237: 0
2025-06-04 16:54:44,642 - INFO - setValues:75 - 外部更新暫存器 237: 0
2025-06-04 16:54:44,642 - INFO - write_register:252 - 寫入暫存器 236: 0 -> 0
2025-06-04 16:54:44,643 - INFO - setValues:75 - 外部更新暫存器 238: 0
2025-06-04 16:54:44,643 - INFO - setValues:75 - 外部更新暫存器 238: 0
2025-06-04 16:54:44,643 - INFO - write_register:252 - 寫入暫存器 237: 0 -> 0
2025-06-04 16:54:44,643 - INFO - setValues:75 - 外部更新暫存器 239: 0
2025-06-04 16:54:44,643 - INFO - setValues:75 - 外部更新暫存器 239: 0
2025-06-04 16:54:44,643 - INFO - write_register:252 - 寫入暫存器 238: 0 -> 0
2025-06-04 16:54:44,643 - INFO - setValues:75 - 外部更新暫存器 240: 0
2025-06-04 16:54:44,643 - INFO - setValues:75 - 外部更新暫存器 240: 0
2025-06-04 16:54:44,643 - INFO - write_register:252 - 寫入暫存器 239: 0 -> 0
2025-06-04 16:54:44,644 - INFO - setValues:75 - 外部更新暫存器 241: 0
2025-06-04 16:54:44,644 - INFO - setValues:75 - 外部更新暫存器 241: 0
2025-06-04 16:54:44,644 - INFO - write_register:252 - 寫入暫存器 240: 0 -> 0
2025-06-04 16:54:44,644 - INFO - setValues:75 - 外部更新暫存器 242: 0
2025-06-04 16:54:44,644 - INFO - setValues:75 - 外部更新暫存器 242: 0
2025-06-04 16:54:44,644 - INFO - write_register:252 - 寫入暫存器 241: 0 -> 0
2025-06-04 16:54:44,644 - INFO - setValues:75 - 外部更新暫存器 243: 0
2025-06-04 16:54:44,644 - INFO - setValues:75 - 外部更新暫存器 243: 0
2025-06-04 16:54:44,645 - INFO - write_register:252 - 寫入暫存器 242: 0 -> 0
2025-06-04 16:54:44,645 - INFO - setValues:75 - 外部更新暫存器 244: 0
2025-06-04 16:54:44,645 - INFO - setValues:75 - 外部更新暫存器 244: 0
2025-06-04 16:54:44,645 - INFO - write_register:252 - 寫入暫存器 243: 0 -> 0
2025-06-04 16:54:44,645 - INFO - setValues:75 - 外部更新暫存器 245: 0
2025-06-04 16:54:44,645 - INFO - setValues:75 - 外部更新暫存器 245: 0
2025-06-04 16:54:44,645 - INFO - write_register:252 - 寫入暫存器 244: 0 -> 0
2025-06-04 16:54:44,645 - INFO - setValues:75 - 外部更新暫存器 246: 0
2025-06-04 16:54:44,646 - INFO - setValues:75 - 外部更新暫存器 246: 0
2025-06-04 16:54:44,646 - INFO - write_register:252 - 寫入暫存器 245: 0 -> 0
2025-06-04 16:54:44,646 - INFO - setValues:75 - 外部更新暫存器 247: 0
2025-06-04 16:54:44,646 - INFO - setValues:75 - 外部更新暫存器 247: 0
2025-06-04 16:54:44,646 - INFO - write_register:252 - 寫入暫存器 246: 0 -> 0
2025-06-04 16:54:44,646 - INFO - setValues:75 - 外部更新暫存器 248: 0
2025-06-04 16:54:44,646 - INFO - setValues:75 - 外部更新暫存器 248: 0
2025-06-04 16:54:44,647 - INFO - write_register:252 - 寫入暫存器 247: 0 -> 0
2025-06-04 16:54:44,647 - INFO - setValues:75 - 外部更新暫存器 249: 0
2025-06-04 16:54:44,647 - INFO - setValues:75 - 外部更新暫存器 249: 0
2025-06-04 16:54:44,647 - INFO - write_register:252 - 寫入暫存器 248: 0 -> 0
2025-06-04 16:54:44,647 - INFO - setValues:75 - 外部更新暫存器 250: 0
2025-06-04 16:54:44,647 - INFO - setValues:75 - 外部更新暫存器 250: 0
2025-06-04 16:54:44,647 - INFO - write_register:252 - 寫入暫存器 249: 0 -> 0
2025-06-04 16:54:44,648 - INFO - setValues:75 - 外部更新暫存器 251: 0
2025-06-04 16:54:44,648 - INFO - setValues:75 - 外部更新暫存器 251: 0
2025-06-04 16:54:44,648 - INFO - write_register:252 - 寫入暫存器 250: 0 -> 0
2025-06-04 16:54:44,648 - INFO - setValues:75 - 外部更新暫存器 252: 0
2025-06-04 16:54:44,648 - INFO - setValues:75 - 外部更新暫存器 252: 0
2025-06-04 16:54:44,648 - INFO - write_register:252 - 寫入暫存器 251: 0 -> 0
2025-06-04 16:54:44,648 - INFO - setValues:75 - 外部更新暫存器 253: 0
2025-06-04 16:54:44,648 - INFO - setValues:75 - 外部更新暫存器 253: 0
2025-06-04 16:54:44,649 - INFO - write_register:252 - 寫入暫存器 252: 0 -> 0
2025-06-04 16:54:44,649 - INFO - setValues:75 - 外部更新暫存器 254: 0
2025-06-04 16:54:44,649 - INFO - setValues:75 - 外部更新暫存器 254: 0
2025-06-04 16:54:44,649 - INFO - write_register:252 - 寫入暫存器 253: 0 -> 0
2025-06-04 16:54:44,649 - INFO - setValues:75 - 外部更新暫存器 255: 0
2025-06-04 16:54:44,649 - INFO - setValues:75 - 外部更新暫存器 255: 0
2025-06-04 16:54:44,649 - INFO - write_register:252 - 寫入暫存器 254: 0 -> 0
2025-06-04 16:54:44,649 - INFO - setValues:75 - 外部更新暫存器 256: 0
2025-06-04 16:54:44,649 - INFO - setValues:75 - 外部更新暫存器 256: 0
2025-06-04 16:54:44,650 - INFO - write_register:252 - 寫入暫存器 255: 0 -> 0
2025-06-04 16:54:44,650 - INFO - setValues:75 - 外部更新暫存器 257: 0
2025-06-04 16:54:44,650 - INFO - setValues:75 - 外部更新暫存器 257: 0
2025-06-04 16:54:44,650 - INFO - write_register:252 - 寫入暫存器 256: 0 -> 0
2025-06-04 16:54:44,650 - INFO - setValues:75 - 外部更新暫存器 258: 0
2025-06-04 16:54:44,650 - INFO - setValues:75 - 外部更新暫存器 258: 0
2025-06-04 16:54:44,650 - INFO - write_register:252 - 寫入暫存器 257: 0 -> 0
2025-06-04 16:54:44,650 - INFO - setValues:75 - 外部更新暫存器 259: 0
2025-06-04 16:54:44,650 - INFO - setValues:75 - 外部更新暫存器 259: 0
2025-06-04 16:54:44,651 - INFO - write_register:252 - 寫入暫存器 258: 0 -> 0
2025-06-04 16:54:44,651 - INFO - setValues:75 - 外部更新暫存器 260: 0
2025-06-04 16:54:44,651 - INFO - setValues:75 - 外部更新暫存器 260: 0
2025-06-04 16:54:44,651 - INFO - write_register:252 - 寫入暫存器 259: 0 -> 0
2025-06-04 16:54:44,651 - INFO - setValues:75 - 外部更新暫存器 261: 0
2025-06-04 16:54:44,651 - INFO - setValues:75 - 外部更新暫存器 261: 0
2025-06-04 16:54:44,651 - INFO - write_register:252 - 寫入暫存器 260: 0 -> 0
2025-06-04 16:54:44,651 - INFO - setValues:75 - 外部更新暫存器 262: 0
2025-06-04 16:54:44,651 - INFO - setValues:75 - 外部更新暫存器 262: 0
2025-06-04 16:54:44,652 - INFO - write_register:252 - 寫入暫存器 261: 0 -> 0
2025-06-04 16:54:44,652 - INFO - setValues:75 - 外部更新暫存器 263: 0
2025-06-04 16:54:44,652 - INFO - setValues:75 - 外部更新暫存器 263: 0
2025-06-04 16:54:44,652 - INFO - write_register:252 - 寫入暫存器 262: 0 -> 0
2025-06-04 16:54:44,652 - INFO - setValues:75 - 外部更新暫存器 264: 0
2025-06-04 16:54:44,652 - INFO - setValues:75 - 外部更新暫存器 264: 0
2025-06-04 16:54:44,652 - INFO - write_register:252 - 寫入暫存器 263: 0 -> 0
2025-06-04 16:54:44,652 - INFO - setValues:75 - 外部更新暫存器 265: 0
2025-06-04 16:54:44,652 - INFO - setValues:75 - 外部更新暫存器 265: 0
2025-06-04 16:54:44,653 - INFO - write_register:252 - 寫入暫存器 264: 0 -> 0
2025-06-04 16:54:44,653 - INFO - setValues:75 - 外部更新暫存器 266: 0
2025-06-04 16:54:44,653 - INFO - setValues:75 - 外部更新暫存器 266: 0
2025-06-04 16:54:44,653 - INFO - write_register:252 - 寫入暫存器 265: 0 -> 0
2025-06-04 16:54:44,653 - INFO - setValues:75 - 外部更新暫存器 267: 0
2025-06-04 16:54:44,653 - INFO - setValues:75 - 外部更新暫存器 267: 0
2025-06-04 16:54:44,653 - INFO - write_register:252 - 寫入暫存器 266: 0 -> 0
2025-06-04 16:54:44,653 - INFO - setValues:75 - 外部更新暫存器 268: 0
2025-06-04 16:54:44,653 - INFO - setValues:75 - 外部更新暫存器 268: 0
2025-06-04 16:54:44,655 - INFO - write_register:252 - 寫入暫存器 267: 0 -> 0
2025-06-04 16:54:44,655 - INFO - setValues:75 - 外部更新暫存器 269: 0
2025-06-04 16:54:44,656 - INFO - setValues:75 - 外部更新暫存器 269: 0
2025-06-04 16:54:44,656 - INFO - write_register:252 - 寫入暫存器 268: 0 -> 0
2025-06-04 16:54:44,656 - INFO - setValues:75 - 外部更新暫存器 270: 0
2025-06-04 16:54:44,656 - INFO - setValues:75 - 外部更新暫存器 270: 0
2025-06-04 16:54:44,656 - INFO - write_register:252 - 寫入暫存器 269: 0 -> 0
2025-06-04 16:54:44,656 - INFO - setValues:75 - 外部更新暫存器 271: 0
2025-06-04 16:54:44,656 - INFO - setValues:75 - 外部更新暫存器 271: 0
2025-06-04 16:54:44,657 - INFO - write_register:252 - 寫入暫存器 270: 0 -> 0
2025-06-04 16:54:44,657 - INFO - setValues:75 - 外部更新暫存器 272: 0
2025-06-04 16:54:44,657 - INFO - setValues:75 - 外部更新暫存器 272: 0
2025-06-04 16:54:44,657 - INFO - write_register:252 - 寫入暫存器 271: 0 -> 0
2025-06-04 16:54:44,657 - INFO - setValues:75 - 外部更新暫存器 273: 0
2025-06-04 16:54:44,657 - INFO - setValues:75 - 外部更新暫存器 273: 0
2025-06-04 16:54:44,658 - INFO - write_register:252 - 寫入暫存器 272: 0 -> 0
2025-06-04 16:54:44,658 - INFO - setValues:75 - 外部更新暫存器 274: 0
2025-06-04 16:54:44,658 - INFO - setValues:75 - 外部更新暫存器 274: 0
2025-06-04 16:54:44,658 - INFO - write_register:252 - 寫入暫存器 273: 0 -> 0
2025-06-04 16:54:44,658 - INFO - setValues:75 - 外部更新暫存器 275: 0
2025-06-04 16:54:44,658 - INFO - setValues:75 - 外部更新暫存器 275: 0
2025-06-04 16:54:44,659 - INFO - write_register:252 - 寫入暫存器 274: 0 -> 0
2025-06-04 16:54:44,659 - INFO - setValues:75 - 外部更新暫存器 276: 0
2025-06-04 16:54:44,659 - INFO - setValues:75 - 外部更新暫存器 276: 0
2025-06-04 16:54:44,659 - INFO - write_register:252 - 寫入暫存器 275: 0 -> 0
2025-06-04 16:54:44,659 - INFO - setValues:75 - 外部更新暫存器 277: 0
2025-06-04 16:54:44,659 - INFO - setValues:75 - 外部更新暫存器 277: 0
2025-06-04 16:54:44,659 - INFO - write_register:252 - 寫入暫存器 276: 0 -> 0
2025-06-04 16:54:44,660 - INFO - setValues:75 - 外部更新暫存器 278: 0
2025-06-04 16:54:44,660 - INFO - setValues:75 - 外部更新暫存器 278: 0
2025-06-04 16:54:44,660 - INFO - write_register:252 - 寫入暫存器 277: 0 -> 0
2025-06-04 16:54:44,660 - INFO - setValues:75 - 外部更新暫存器 279: 0
2025-06-04 16:54:44,660 - INFO - setValues:75 - 外部更新暫存器 279: 0
2025-06-04 16:54:44,660 - INFO - write_register:252 - 寫入暫存器 278: 0 -> 0
2025-06-04 16:54:44,661 - INFO - setValues:75 - 外部更新暫存器 280: 0
2025-06-04 16:54:44,661 - INFO - setValues:75 - 外部更新暫存器 280: 0
2025-06-04 16:54:44,661 - INFO - write_register:252 - 寫入暫存器 279: 0 -> 0
2025-06-04 16:54:44,661 - INFO - setValues:75 - 外部更新暫存器 281: 0
2025-06-04 16:54:44,661 - INFO - setValues:75 - 外部更新暫存器 281: 0
2025-06-04 16:54:44,661 - INFO - write_register:252 - 寫入暫存器 280: 0 -> 0
2025-06-04 16:54:44,662 - INFO - setValues:75 - 外部更新暫存器 282: 0
2025-06-04 16:54:44,662 - INFO - setValues:75 - 外部更新暫存器 282: 0
2025-06-04 16:54:44,662 - INFO - write_register:252 - 寫入暫存器 281: 0 -> 0
2025-06-04 16:54:44,662 - INFO - setValues:75 - 外部更新暫存器 283: 0
2025-06-04 16:54:44,662 - INFO - setValues:75 - 外部更新暫存器 283: 0
2025-06-04 16:54:44,663 - INFO - write_register:252 - 寫入暫存器 282: 0 -> 0
2025-06-04 16:54:44,663 - INFO - setValues:75 - 外部更新暫存器 284: 0
2025-06-04 16:54:44,663 - INFO - setValues:75 - 外部更新暫存器 284: 0
2025-06-04 16:54:44,663 - INFO - write_register:252 - 寫入暫存器 283: 0 -> 0
2025-06-04 16:54:44,663 - INFO - setValues:75 - 外部更新暫存器 285: 0
2025-06-04 16:54:44,663 - INFO - setValues:75 - 外部更新暫存器 285: 0
2025-06-04 16:54:44,664 - INFO - write_register:252 - 寫入暫存器 284: 0 -> 0
2025-06-04 16:54:44,664 - INFO - setValues:75 - 外部更新暫存器 286: 0
2025-06-04 16:54:44,664 - INFO - setValues:75 - 外部更新暫存器 286: 0
2025-06-04 16:54:44,664 - INFO - write_register:252 - 寫入暫存器 285: 0 -> 0
2025-06-04 16:54:44,664 - INFO - setValues:75 - 外部更新暫存器 287: 0
2025-06-04 16:54:44,665 - INFO - setValues:75 - 外部更新暫存器 287: 0
2025-06-04 16:54:44,665 - INFO - write_register:252 - 寫入暫存器 286: 0 -> 0
2025-06-04 16:54:44,665 - INFO - setValues:75 - 外部更新暫存器 288: 0
2025-06-04 16:54:44,665 - INFO - setValues:75 - 外部更新暫存器 288: 0
2025-06-04 16:54:44,665 - INFO - write_register:252 - 寫入暫存器 287: 0 -> 0
2025-06-04 16:54:44,665 - INFO - setValues:75 - 外部更新暫存器 289: 0
2025-06-04 16:54:44,666 - INFO - setValues:75 - 外部更新暫存器 289: 0
2025-06-04 16:54:44,666 - INFO - write_register:252 - 寫入暫存器 288: 0 -> 0
2025-06-04 16:54:44,666 - INFO - setValues:75 - 外部更新暫存器 290: 0
2025-06-04 16:54:44,666 - INFO - setValues:75 - 外部更新暫存器 290: 0
2025-06-04 16:54:44,666 - INFO - write_register:252 - 寫入暫存器 289: 0 -> 0
2025-06-04 16:54:44,666 - INFO - setValues:75 - 外部更新暫存器 291: 0
2025-06-04 16:54:44,667 - INFO - setValues:75 - 外部更新暫存器 291: 0
2025-06-04 16:54:44,667 - INFO - write_register:252 - 寫入暫存器 290: 0 -> 0
2025-06-04 16:54:44,667 - INFO - setValues:75 - 外部更新暫存器 292: 0
2025-06-04 16:54:44,667 - INFO - setValues:75 - 外部更新暫存器 292: 0
2025-06-04 16:54:44,667 - INFO - write_register:252 - 寫入暫存器 291: 0 -> 0
2025-06-04 16:54:44,667 - INFO - setValues:75 - 外部更新暫存器 293: 0
2025-06-04 16:54:44,668 - INFO - setValues:75 - 外部更新暫存器 293: 0
2025-06-04 16:54:44,668 - INFO - write_register:252 - 寫入暫存器 292: 0 -> 0
2025-06-04 16:54:44,668 - INFO - setValues:75 - 外部更新暫存器 294: 0
2025-06-04 16:54:44,668 - INFO - setValues:75 - 外部更新暫存器 294: 0
2025-06-04 16:54:44,668 - INFO - write_register:252 - 寫入暫存器 293: 0 -> 0
2025-06-04 16:54:44,668 - INFO - setValues:75 - 外部更新暫存器 295: 0
2025-06-04 16:54:44,668 - INFO - setValues:75 - 外部更新暫存器 295: 0
2025-06-04 16:54:44,668 - INFO - write_register:252 - 寫入暫存器 294: 0 -> 0
2025-06-04 16:54:44,669 - INFO - setValues:75 - 外部更新暫存器 296: 0
2025-06-04 16:54:44,669 - INFO - setValues:75 - 外部更新暫存器 296: 0
2025-06-04 16:54:44,669 - INFO - write_register:252 - 寫入暫存器 295: 0 -> 0
2025-06-04 16:54:44,669 - INFO - setValues:75 - 外部更新暫存器 297: 0
2025-06-04 16:54:44,669 - INFO - setValues:75 - 外部更新暫存器 297: 0
2025-06-04 16:54:44,669 - INFO - write_register:252 - 寫入暫存器 296: 0 -> 0
2025-06-04 16:54:44,669 - INFO - setValues:75 - 外部更新暫存器 298: 0
2025-06-04 16:54:44,669 - INFO - setValues:75 - 外部更新暫存器 298: 0
2025-06-04 16:54:44,670 - INFO - write_register:252 - 寫入暫存器 297: 0 -> 0
2025-06-04 16:54:44,671 - INFO - setValues:75 - 外部更新暫存器 299: 0
2025-06-04 16:54:44,671 - INFO - setValues:75 - 外部更新暫存器 299: 0
2025-06-04 16:54:44,671 - INFO - write_register:252 - 寫入暫存器 298: 0 -> 0
2025-06-04 16:54:44,672 - INFO - setValues:75 - 外部更新暫存器 300: 0
2025-06-04 16:54:44,672 - INFO - setValues:75 - 外部更新暫存器 300: 0
2025-06-04 16:54:44,672 - INFO - write_register:252 - 寫入暫存器 299: 0 -> 0
2025-06-04 16:54:44,672 - INFO - setValues:75 - 外部更新暫存器 301: 0
2025-06-04 16:54:44,672 - INFO - setValues:75 - 外部更新暫存器 301: 0
2025-06-04 16:54:44,672 - INFO - write_register:252 - 寫入暫存器 300: 0 -> 0
2025-06-04 16:54:44,672 - INFO - setValues:75 - 外部更新暫存器 302: 0
2025-06-04 16:54:44,673 - INFO - setValues:75 - 外部更新暫存器 302: 0
2025-06-04 16:54:44,673 - INFO - write_register:252 - 寫入暫存器 301: 0 -> 0
2025-06-04 16:54:44,673 - INFO - setValues:75 - 外部更新暫存器 303: 0
2025-06-04 16:54:44,673 - INFO - setValues:75 - 外部更新暫存器 303: 0
2025-06-04 16:54:44,673 - INFO - write_register:252 - 寫入暫存器 302: 0 -> 0
2025-06-04 16:54:44,673 - INFO - setValues:75 - 外部更新暫存器 304: 0
2025-06-04 16:54:44,673 - INFO - setValues:75 - 外部更新暫存器 304: 0
2025-06-04 16:54:44,674 - INFO - write_register:252 - 寫入暫存器 303: 0 -> 0
2025-06-04 16:54:44,674 - INFO - setValues:75 - 外部更新暫存器 305: 0
2025-06-04 16:54:44,674 - INFO - setValues:75 - 外部更新暫存器 305: 0
2025-06-04 16:54:44,674 - INFO - write_register:252 - 寫入暫存器 304: 0 -> 0
2025-06-04 16:54:44,674 - INFO - setValues:75 - 外部更新暫存器 306: 0
2025-06-04 16:54:44,674 - INFO - setValues:75 - 外部更新暫存器 306: 0
2025-06-04 16:54:44,674 - INFO - write_register:252 - 寫入暫存器 305: 0 -> 0
2025-06-04 16:54:44,675 - INFO - setValues:75 - 外部更新暫存器 307: 0
2025-06-04 16:54:44,675 - INFO - setValues:75 - 外部更新暫存器 307: 0
2025-06-04 16:54:44,675 - INFO - write_register:252 - 寫入暫存器 306: 0 -> 0
2025-06-04 16:54:44,675 - INFO - setValues:75 - 外部更新暫存器 308: 0
2025-06-04 16:54:44,675 - INFO - setValues:75 - 外部更新暫存器 308: 0
2025-06-04 16:54:44,676 - INFO - write_register:252 - 寫入暫存器 307: 0 -> 0
2025-06-04 16:54:44,676 - INFO - setValues:75 - 外部更新暫存器 309: 0
2025-06-04 16:54:44,676 - INFO - setValues:75 - 外部更新暫存器 309: 0
2025-06-04 16:54:44,676 - INFO - write_register:252 - 寫入暫存器 308: 0 -> 0
2025-06-04 16:54:44,676 - INFO - setValues:75 - 外部更新暫存器 310: 0
2025-06-04 16:54:44,676 - INFO - setValues:75 - 外部更新暫存器 310: 0
2025-06-04 16:54:44,676 - INFO - write_register:252 - 寫入暫存器 309: 0 -> 0
2025-06-04 16:54:44,676 - INFO - setValues:75 - 外部更新暫存器 311: 0
2025-06-04 16:54:44,677 - INFO - setValues:75 - 外部更新暫存器 311: 0
2025-06-04 16:54:44,677 - INFO - write_register:252 - 寫入暫存器 310: 0 -> 0
2025-06-04 16:54:44,677 - INFO - setValues:75 - 外部更新暫存器 312: 0
2025-06-04 16:54:44,677 - INFO - setValues:75 - 外部更新暫存器 312: 0
2025-06-04 16:54:44,677 - INFO - write_register:252 - 寫入暫存器 311: 0 -> 0
2025-06-04 16:54:44,677 - INFO - setValues:75 - 外部更新暫存器 313: 0
2025-06-04 16:54:44,677 - INFO - setValues:75 - 外部更新暫存器 313: 0
2025-06-04 16:54:44,677 - INFO - write_register:252 - 寫入暫存器 312: 0 -> 0
2025-06-04 16:54:44,678 - INFO - setValues:75 - 外部更新暫存器 314: 0
2025-06-04 16:54:44,678 - INFO - setValues:75 - 外部更新暫存器 314: 0
2025-06-04 16:54:44,678 - INFO - write_register:252 - 寫入暫存器 313: 0 -> 0
2025-06-04 16:54:44,678 - INFO - setValues:75 - 外部更新暫存器 315: 0
2025-06-04 16:54:44,678 - INFO - setValues:75 - 外部更新暫存器 315: 0
2025-06-04 16:54:44,678 - INFO - write_register:252 - 寫入暫存器 314: 0 -> 0
2025-06-04 16:54:44,678 - INFO - setValues:75 - 外部更新暫存器 316: 0
2025-06-04 16:54:44,678 - INFO - setValues:75 - 外部更新暫存器 316: 0
2025-06-04 16:54:44,679 - INFO - write_register:252 - 寫入暫存器 315: 0 -> 0
2025-06-04 16:54:44,679 - INFO - setValues:75 - 外部更新暫存器 317: 0
2025-06-04 16:54:44,679 - INFO - setValues:75 - 外部更新暫存器 317: 0
2025-06-04 16:54:44,679 - INFO - write_register:252 - 寫入暫存器 316: 0 -> 0
2025-06-04 16:54:44,679 - INFO - setValues:75 - 外部更新暫存器 318: 0
2025-06-04 16:54:44,679 - INFO - setValues:75 - 外部更新暫存器 318: 0
2025-06-04 16:54:44,679 - INFO - write_register:252 - 寫入暫存器 317: 0 -> 0
2025-06-04 16:54:44,680 - INFO - setValues:75 - 外部更新暫存器 319: 0
2025-06-04 16:54:44,680 - INFO - setValues:75 - 外部更新暫存器 319: 0
2025-06-04 16:54:44,680 - INFO - write_register:252 - 寫入暫存器 318: 0 -> 0
2025-06-04 16:54:44,680 - INFO - setValues:75 - 外部更新暫存器 320: 0
2025-06-04 16:54:44,680 - INFO - setValues:75 - 外部更新暫存器 320: 0
2025-06-04 16:54:44,680 - INFO - write_register:252 - 寫入暫存器 319: 0 -> 0
2025-06-04 16:54:44,680 - INFO - setValues:75 - 外部更新暫存器 321: 0
2025-06-04 16:54:44,681 - INFO - setValues:75 - 外部更新暫存器 321: 0
2025-06-04 16:54:44,681 - INFO - write_register:252 - 寫入暫存器 320: 0 -> 0
2025-06-04 16:54:44,681 - INFO - setValues:75 - 外部更新暫存器 322: 0
2025-06-04 16:54:44,681 - INFO - setValues:75 - 外部更新暫存器 322: 0
2025-06-04 16:54:44,681 - INFO - write_register:252 - 寫入暫存器 321: 0 -> 0
2025-06-04 16:54:44,681 - INFO - setValues:75 - 外部更新暫存器 323: 0
2025-06-04 16:54:44,681 - INFO - setValues:75 - 外部更新暫存器 323: 0
2025-06-04 16:54:44,681 - INFO - write_register:252 - 寫入暫存器 322: 0 -> 0
2025-06-04 16:54:44,681 - INFO - setValues:75 - 外部更新暫存器 324: 0
2025-06-04 16:54:44,682 - INFO - setValues:75 - 外部更新暫存器 324: 0
2025-06-04 16:54:44,682 - INFO - write_register:252 - 寫入暫存器 323: 0 -> 0
2025-06-04 16:54:44,682 - INFO - setValues:75 - 外部更新暫存器 325: 0
2025-06-04 16:54:44,682 - INFO - setValues:75 - 外部更新暫存器 325: 0
2025-06-04 16:54:44,682 - INFO - write_register:252 - 寫入暫存器 324: 0 -> 0
2025-06-04 16:54:44,682 - INFO - setValues:75 - 外部更新暫存器 326: 0
2025-06-04 16:54:44,682 - INFO - setValues:75 - 外部更新暫存器 326: 0
2025-06-04 16:54:44,682 - INFO - write_register:252 - 寫入暫存器 325: 0 -> 0
2025-06-04 16:54:44,682 - INFO - setValues:75 - 外部更新暫存器 327: 0
2025-06-04 16:54:44,683 - INFO - setValues:75 - 外部更新暫存器 327: 0
2025-06-04 16:54:44,683 - INFO - write_register:252 - 寫入暫存器 326: 0 -> 0
2025-06-04 16:54:44,683 - INFO - setValues:75 - 外部更新暫存器 328: 0
2025-06-04 16:54:44,683 - INFO - setValues:75 - 外部更新暫存器 328: 0
2025-06-04 16:54:44,683 - INFO - write_register:252 - 寫入暫存器 327: 0 -> 0
2025-06-04 16:54:44,683 - INFO - setValues:75 - 外部更新暫存器 329: 0
2025-06-04 16:54:44,683 - INFO - setValues:75 - 外部更新暫存器 329: 0
2025-06-04 16:54:44,683 - INFO - write_register:252 - 寫入暫存器 328: 0 -> 0
2025-06-04 16:54:44,683 - INFO - setValues:75 - 外部更新暫存器 330: 0
2025-06-04 16:54:44,684 - INFO - setValues:75 - 外部更新暫存器 330: 0
2025-06-04 16:54:44,684 - INFO - write_register:252 - 寫入暫存器 329: 0 -> 0
2025-06-04 16:54:44,684 - INFO - setValues:75 - 外部更新暫存器 331: 0
2025-06-04 16:54:44,684 - INFO - setValues:75 - 外部更新暫存器 331: 0
2025-06-04 16:54:44,684 - INFO - write_register:252 - 寫入暫存器 330: 0 -> 0
2025-06-04 16:54:44,684 - INFO - setValues:75 - 外部更新暫存器 332: 0
2025-06-04 16:54:44,684 - INFO - setValues:75 - 外部更新暫存器 332: 0
2025-06-04 16:54:44,684 - INFO - write_register:252 - 寫入暫存器 331: 0 -> 0
2025-06-04 16:54:44,685 - INFO - setValues:75 - 外部更新暫存器 333: 0
2025-06-04 16:54:44,685 - INFO - setValues:75 - 外部更新暫存器 333: 0
2025-06-04 16:54:44,685 - INFO - write_register:252 - 寫入暫存器 332: 0 -> 0
2025-06-04 16:54:44,685 - INFO - setValues:75 - 外部更新暫存器 334: 0
2025-06-04 16:54:44,685 - INFO - setValues:75 - 外部更新暫存器 334: 0
2025-06-04 16:54:44,685 - INFO - write_register:252 - 寫入暫存器 333: 0 -> 0
2025-06-04 16:54:44,685 - INFO - setValues:75 - 外部更新暫存器 335: 0
2025-06-04 16:54:44,685 - INFO - setValues:75 - 外部更新暫存器 335: 0
2025-06-04 16:54:44,685 - INFO - write_register:252 - 寫入暫存器 334: 0 -> 0
2025-06-04 16:54:44,686 - INFO - setValues:75 - 外部更新暫存器 336: 0
2025-06-04 16:54:44,687 - INFO - setValues:75 - 外部更新暫存器 336: 0
2025-06-04 16:54:44,687 - INFO - write_register:252 - 寫入暫存器 335: 0 -> 0
2025-06-04 16:54:44,687 - INFO - setValues:75 - 外部更新暫存器 337: 0
2025-06-04 16:54:44,687 - INFO - setValues:75 - 外部更新暫存器 337: 0
2025-06-04 16:54:44,687 - INFO - write_register:252 - 寫入暫存器 336: 0 -> 0
2025-06-04 16:54:44,687 - INFO - setValues:75 - 外部更新暫存器 338: 0
2025-06-04 16:54:44,688 - INFO - setValues:75 - 外部更新暫存器 338: 0
2025-06-04 16:54:44,688 - INFO - write_register:252 - 寫入暫存器 337: 0 -> 0
2025-06-04 16:54:44,688 - INFO - setValues:75 - 外部更新暫存器 339: 0
2025-06-04 16:54:44,688 - INFO - setValues:75 - 外部更新暫存器 339: 0
2025-06-04 16:54:44,688 - INFO - write_register:252 - 寫入暫存器 338: 0 -> 0
2025-06-04 16:54:44,688 - INFO - setValues:75 - 外部更新暫存器 340: 0
2025-06-04 16:54:44,688 - INFO - setValues:75 - 外部更新暫存器 340: 0
2025-06-04 16:54:44,689 - INFO - write_register:252 - 寫入暫存器 339: 0 -> 0
2025-06-04 16:54:44,689 - INFO - setValues:75 - 外部更新暫存器 341: 0
2025-06-04 16:54:44,689 - INFO - setValues:75 - 外部更新暫存器 341: 0
2025-06-04 16:54:44,689 - INFO - write_register:252 - 寫入暫存器 340: 0 -> 0
2025-06-04 16:54:44,689 - INFO - setValues:75 - 外部更新暫存器 342: 0
2025-06-04 16:54:44,689 - INFO - setValues:75 - 外部更新暫存器 342: 0
2025-06-04 16:54:44,689 - INFO - write_register:252 - 寫入暫存器 341: 0 -> 0
2025-06-04 16:54:44,689 - INFO - setValues:75 - 外部更新暫存器 343: 0
2025-06-04 16:54:44,690 - INFO - setValues:75 - 外部更新暫存器 343: 0
2025-06-04 16:54:44,690 - INFO - write_register:252 - 寫入暫存器 342: 0 -> 0
2025-06-04 16:54:44,690 - INFO - setValues:75 - 外部更新暫存器 344: 0
2025-06-04 16:54:44,690 - INFO - setValues:75 - 外部更新暫存器 344: 0
2025-06-04 16:54:44,690 - INFO - write_register:252 - 寫入暫存器 343: 0 -> 0
2025-06-04 16:54:44,690 - INFO - setValues:75 - 外部更新暫存器 345: 0
2025-06-04 16:54:44,690 - INFO - setValues:75 - 外部更新暫存器 345: 0
2025-06-04 16:54:44,691 - INFO - write_register:252 - 寫入暫存器 344: 0 -> 0
2025-06-04 16:54:44,691 - INFO - setValues:75 - 外部更新暫存器 346: 0
2025-06-04 16:54:44,691 - INFO - setValues:75 - 外部更新暫存器 346: 0
2025-06-04 16:54:44,691 - INFO - write_register:252 - 寫入暫存器 345: 0 -> 0
2025-06-04 16:54:44,691 - INFO - setValues:75 - 外部更新暫存器 347: 0
2025-06-04 16:54:44,691 - INFO - setValues:75 - 外部更新暫存器 347: 0
2025-06-04 16:54:44,691 - INFO - write_register:252 - 寫入暫存器 346: 0 -> 0
2025-06-04 16:54:44,691 - INFO - setValues:75 - 外部更新暫存器 348: 0
2025-06-04 16:54:44,691 - INFO - setValues:75 - 外部更新暫存器 348: 0
2025-06-04 16:54:44,692 - INFO - write_register:252 - 寫入暫存器 347: 0 -> 0
2025-06-04 16:54:44,692 - INFO - setValues:75 - 外部更新暫存器 349: 0
2025-06-04 16:54:44,692 - INFO - setValues:75 - 外部更新暫存器 349: 0
2025-06-04 16:54:44,692 - INFO - write_register:252 - 寫入暫存器 348: 0 -> 0
2025-06-04 16:54:44,692 - INFO - setValues:75 - 外部更新暫存器 350: 0
2025-06-04 16:54:44,692 - INFO - setValues:75 - 外部更新暫存器 350: 0
2025-06-04 16:54:44,692 - INFO - write_register:252 - 寫入暫存器 349: 0 -> 0
2025-06-04 16:54:44,692 - INFO - setValues:75 - 外部更新暫存器 351: 0
2025-06-04 16:54:44,693 - INFO - setValues:75 - 外部更新暫存器 351: 0
2025-06-04 16:54:44,693 - INFO - write_register:252 - 寫入暫存器 350: 0 -> 0
2025-06-04 16:54:44,693 - INFO - setValues:75 - 外部更新暫存器 352: 0
2025-06-04 16:54:44,693 - INFO - setValues:75 - 外部更新暫存器 352: 0
2025-06-04 16:54:44,693 - INFO - write_register:252 - 寫入暫存器 351: 0 -> 0
2025-06-04 16:54:44,693 - INFO - setValues:75 - 外部更新暫存器 353: 0
2025-06-04 16:54:44,693 - INFO - setValues:75 - 外部更新暫存器 353: 0
2025-06-04 16:54:44,693 - INFO - write_register:252 - 寫入暫存器 352: 0 -> 0
2025-06-04 16:54:44,693 - INFO - setValues:75 - 外部更新暫存器 354: 0
2025-06-04 16:54:44,694 - INFO - setValues:75 - 外部更新暫存器 354: 0
2025-06-04 16:54:44,694 - INFO - write_register:252 - 寫入暫存器 353: 0 -> 0
2025-06-04 16:54:44,694 - INFO - setValues:75 - 外部更新暫存器 355: 0
2025-06-04 16:54:44,694 - INFO - setValues:75 - 外部更新暫存器 355: 0
2025-06-04 16:54:44,694 - INFO - write_register:252 - 寫入暫存器 354: 0 -> 0
2025-06-04 16:54:44,694 - INFO - setValues:75 - 外部更新暫存器 356: 0
2025-06-04 16:54:44,694 - INFO - setValues:75 - 外部更新暫存器 356: 0
2025-06-04 16:54:44,694 - INFO - write_register:252 - 寫入暫存器 355: 0 -> 0
2025-06-04 16:54:44,695 - INFO - setValues:75 - 外部更新暫存器 357: 0
2025-06-04 16:54:44,695 - INFO - setValues:75 - 外部更新暫存器 357: 0
2025-06-04 16:54:44,695 - INFO - write_register:252 - 寫入暫存器 356: 0 -> 0
2025-06-04 16:54:44,695 - INFO - setValues:75 - 外部更新暫存器 358: 0
2025-06-04 16:54:44,695 - INFO - setValues:75 - 外部更新暫存器 358: 0
2025-06-04 16:54:44,695 - INFO - write_register:252 - 寫入暫存器 357: 0 -> 0
2025-06-04 16:54:44,695 - INFO - setValues:75 - 外部更新暫存器 359: 0
2025-06-04 16:54:44,695 - INFO - setValues:75 - 外部更新暫存器 359: 0
2025-06-04 16:54:44,695 - INFO - write_register:252 - 寫入暫存器 358: 0 -> 0
2025-06-04 16:54:44,696 - INFO - setValues:75 - 外部更新暫存器 360: 0
2025-06-04 16:54:44,696 - INFO - setValues:75 - 外部更新暫存器 360: 0
2025-06-04 16:54:44,696 - INFO - write_register:252 - 寫入暫存器 359: 0 -> 0
2025-06-04 16:54:44,696 - INFO - setValues:75 - 外部更新暫存器 361: 0
2025-06-04 16:54:44,696 - INFO - setValues:75 - 外部更新暫存器 361: 0
2025-06-04 16:54:44,696 - INFO - write_register:252 - 寫入暫存器 360: 0 -> 0
2025-06-04 16:54:44,696 - INFO - setValues:75 - 外部更新暫存器 362: 0
2025-06-04 16:54:44,696 - INFO - setValues:75 - 外部更新暫存器 362: 0
2025-06-04 16:54:44,697 - INFO - write_register:252 - 寫入暫存器 361: 0 -> 0
2025-06-04 16:54:44,697 - INFO - setValues:75 - 外部更新暫存器 363: 0
2025-06-04 16:54:44,697 - INFO - setValues:75 - 外部更新暫存器 363: 0
2025-06-04 16:54:44,697 - INFO - write_register:252 - 寫入暫存器 362: 0 -> 0
2025-06-04 16:54:44,697 - INFO - setValues:75 - 外部更新暫存器 364: 0
2025-06-04 16:54:44,697 - INFO - setValues:75 - 外部更新暫存器 364: 0
2025-06-04 16:54:44,697 - INFO - write_register:252 - 寫入暫存器 363: 0 -> 0
2025-06-04 16:54:44,697 - INFO - setValues:75 - 外部更新暫存器 365: 0
2025-06-04 16:54:44,697 - INFO - setValues:75 - 外部更新暫存器 365: 0
2025-06-04 16:54:44,698 - INFO - write_register:252 - 寫入暫存器 364: 0 -> 0
2025-06-04 16:54:44,698 - INFO - setValues:75 - 外部更新暫存器 366: 0
2025-06-04 16:54:44,698 - INFO - setValues:75 - 外部更新暫存器 366: 0
2025-06-04 16:54:44,698 - INFO - write_register:252 - 寫入暫存器 365: 0 -> 0
2025-06-04 16:54:44,698 - INFO - setValues:75 - 外部更新暫存器 367: 0
2025-06-04 16:54:44,698 - INFO - setValues:75 - 外部更新暫存器 367: 0
2025-06-04 16:54:44,699 - INFO - write_register:252 - 寫入暫存器 366: 0 -> 0
2025-06-04 16:54:44,699 - INFO - setValues:75 - 外部更新暫存器 368: 0
2025-06-04 16:54:44,699 - INFO - setValues:75 - 外部更新暫存器 368: 0
2025-06-04 16:54:44,699 - INFO - write_register:252 - 寫入暫存器 367: 0 -> 0
2025-06-04 16:54:44,699 - INFO - setValues:75 - 外部更新暫存器 369: 0
2025-06-04 16:54:44,699 - INFO - setValues:75 - 外部更新暫存器 369: 0
2025-06-04 16:54:44,699 - INFO - write_register:252 - 寫入暫存器 368: 0 -> 0
2025-06-04 16:54:44,699 - INFO - setValues:75 - 外部更新暫存器 370: 0
2025-06-04 16:54:44,699 - INFO - setValues:75 - 外部更新暫存器 370: 0
2025-06-04 16:54:44,700 - INFO - write_register:252 - 寫入暫存器 369: 0 -> 0
2025-06-04 16:54:44,700 - INFO - setValues:75 - 外部更新暫存器 371: 0
2025-06-04 16:54:44,700 - INFO - setValues:75 - 外部更新暫存器 371: 0
2025-06-04 16:54:44,700 - INFO - write_register:252 - 寫入暫存器 370: 0 -> 0
2025-06-04 16:54:44,700 - INFO - setValues:75 - 外部更新暫存器 372: 0
2025-06-04 16:54:44,700 - INFO - setValues:75 - 外部更新暫存器 372: 0
2025-06-04 16:54:44,700 - INFO - write_register:252 - 寫入暫存器 371: 0 -> 0
2025-06-04 16:54:44,700 - INFO - setValues:75 - 外部更新暫存器 373: 0
2025-06-04 16:54:44,701 - INFO - setValues:75 - 外部更新暫存器 373: 0
2025-06-04 16:54:44,702 - INFO - write_register:252 - 寫入暫存器 372: 0 -> 0
2025-06-04 16:54:44,702 - INFO - setValues:75 - 外部更新暫存器 374: 0
2025-06-04 16:54:44,702 - INFO - setValues:75 - 外部更新暫存器 374: 0
2025-06-04 16:54:44,702 - INFO - write_register:252 - 寫入暫存器 373: 0 -> 0
2025-06-04 16:54:44,702 - INFO - setValues:75 - 外部更新暫存器 375: 0
2025-06-04 16:54:44,702 - INFO - setValues:75 - 外部更新暫存器 375: 0
2025-06-04 16:54:44,702 - INFO - write_register:252 - 寫入暫存器 374: 0 -> 0
2025-06-04 16:54:44,702 - INFO - setValues:75 - 外部更新暫存器 376: 0
2025-06-04 16:54:44,703 - INFO - setValues:75 - 外部更新暫存器 376: 0
2025-06-04 16:54:44,703 - INFO - write_register:252 - 寫入暫存器 375: 0 -> 0
2025-06-04 16:54:44,703 - INFO - setValues:75 - 外部更新暫存器 377: 0
2025-06-04 16:54:44,703 - INFO - setValues:75 - 外部更新暫存器 377: 0
2025-06-04 16:54:44,703 - INFO - write_register:252 - 寫入暫存器 376: 0 -> 0
2025-06-04 16:54:44,703 - INFO - setValues:75 - 外部更新暫存器 378: 0
2025-06-04 16:54:44,703 - INFO - setValues:75 - 外部更新暫存器 378: 0
2025-06-04 16:54:44,703 - INFO - write_register:252 - 寫入暫存器 377: 0 -> 0
2025-06-04 16:54:44,703 - INFO - setValues:75 - 外部更新暫存器 379: 0
2025-06-04 16:54:44,704 - INFO - setValues:75 - 外部更新暫存器 379: 0
2025-06-04 16:54:44,704 - INFO - write_register:252 - 寫入暫存器 378: 0 -> 0
2025-06-04 16:54:44,704 - INFO - setValues:75 - 外部更新暫存器 380: 0
2025-06-04 16:54:44,704 - INFO - setValues:75 - 外部更新暫存器 380: 0
2025-06-04 16:54:44,704 - INFO - write_register:252 - 寫入暫存器 379: 0 -> 0
2025-06-04 16:54:44,704 - INFO - setValues:75 - 外部更新暫存器 381: 0
2025-06-04 16:54:44,704 - INFO - setValues:75 - 外部更新暫存器 381: 0
2025-06-04 16:54:44,705 - INFO - write_register:252 - 寫入暫存器 380: 0 -> 0
2025-06-04 16:54:44,705 - INFO - setValues:75 - 外部更新暫存器 382: 0
2025-06-04 16:54:44,705 - INFO - setValues:75 - 外部更新暫存器 382: 0
2025-06-04 16:54:44,705 - INFO - write_register:252 - 寫入暫存器 381: 0 -> 0
2025-06-04 16:54:44,705 - INFO - setValues:75 - 外部更新暫存器 383: 0
2025-06-04 16:54:44,705 - INFO - setValues:75 - 外部更新暫存器 383: 0
2025-06-04 16:54:44,705 - INFO - write_register:252 - 寫入暫存器 382: 0 -> 0
2025-06-04 16:54:44,705 - INFO - setValues:75 - 外部更新暫存器 384: 0
2025-06-04 16:54:44,706 - INFO - setValues:75 - 外部更新暫存器 384: 0
2025-06-04 16:54:44,706 - INFO - write_register:252 - 寫入暫存器 383: 0 -> 0
2025-06-04 16:54:44,706 - INFO - setValues:75 - 外部更新暫存器 385: 0
2025-06-04 16:54:44,706 - INFO - setValues:75 - 外部更新暫存器 385: 0
2025-06-04 16:54:44,706 - INFO - write_register:252 - 寫入暫存器 384: 0 -> 0
2025-06-04 16:54:44,706 - INFO - setValues:75 - 外部更新暫存器 386: 0
2025-06-04 16:54:44,706 - INFO - setValues:75 - 外部更新暫存器 386: 0
2025-06-04 16:54:44,706 - INFO - write_register:252 - 寫入暫存器 385: 0 -> 0
2025-06-04 16:54:44,707 - INFO - setValues:75 - 外部更新暫存器 387: 0
2025-06-04 16:54:44,707 - INFO - setValues:75 - 外部更新暫存器 387: 0
2025-06-04 16:54:44,707 - INFO - write_register:252 - 寫入暫存器 386: 0 -> 0
2025-06-04 16:54:44,707 - INFO - setValues:75 - 外部更新暫存器 388: 0
2025-06-04 16:54:44,707 - INFO - setValues:75 - 外部更新暫存器 388: 0
2025-06-04 16:54:44,707 - INFO - write_register:252 - 寫入暫存器 387: 0 -> 0
2025-06-04 16:54:44,707 - INFO - setValues:75 - 外部更新暫存器 389: 0
2025-06-04 16:54:44,707 - INFO - setValues:75 - 外部更新暫存器 389: 0
2025-06-04 16:54:44,708 - INFO - write_register:252 - 寫入暫存器 388: 0 -> 0
2025-06-04 16:54:44,708 - INFO - setValues:75 - 外部更新暫存器 390: 0
2025-06-04 16:54:44,708 - INFO - setValues:75 - 外部更新暫存器 390: 0
2025-06-04 16:54:44,708 - INFO - write_register:252 - 寫入暫存器 389: 0 -> 0
2025-06-04 16:54:44,708 - INFO - setValues:75 - 外部更新暫存器 391: 0
2025-06-04 16:54:44,708 - INFO - setValues:75 - 外部更新暫存器 391: 0
2025-06-04 16:54:44,708 - INFO - write_register:252 - 寫入暫存器 390: 0 -> 0
2025-06-04 16:54:44,708 - INFO - setValues:75 - 外部更新暫存器 392: 0
2025-06-04 16:54:44,709 - INFO - setValues:75 - 外部更新暫存器 392: 0
2025-06-04 16:54:44,709 - INFO - write_register:252 - 寫入暫存器 391: 0 -> 0
2025-06-04 16:54:44,709 - INFO - setValues:75 - 外部更新暫存器 393: 0
2025-06-04 16:54:44,709 - INFO - setValues:75 - 外部更新暫存器 393: 0
2025-06-04 16:54:44,709 - INFO - write_register:252 - 寫入暫存器 392: 0 -> 0
2025-06-04 16:54:44,709 - INFO - setValues:75 - 外部更新暫存器 394: 0
2025-06-04 16:54:44,709 - INFO - setValues:75 - 外部更新暫存器 394: 0
2025-06-04 16:54:44,709 - INFO - write_register:252 - 寫入暫存器 393: 0 -> 0
2025-06-04 16:54:44,709 - INFO - setValues:75 - 外部更新暫存器 395: 0
2025-06-04 16:54:44,710 - INFO - setValues:75 - 外部更新暫存器 395: 0
2025-06-04 16:54:44,710 - INFO - write_register:252 - 寫入暫存器 394: 0 -> 0
2025-06-04 16:54:44,710 - INFO - setValues:75 - 外部更新暫存器 396: 0
2025-06-04 16:54:44,710 - INFO - setValues:75 - 外部更新暫存器 396: 0
2025-06-04 16:54:44,710 - INFO - write_register:252 - 寫入暫存器 395: 0 -> 0
2025-06-04 16:54:44,710 - INFO - setValues:75 - 外部更新暫存器 397: 0
2025-06-04 16:54:44,710 - INFO - setValues:75 - 外部更新暫存器 397: 0
2025-06-04 16:54:44,710 - INFO - write_register:252 - 寫入暫存器 396: 0 -> 0
2025-06-04 16:54:44,711 - INFO - setValues:75 - 外部更新暫存器 398: 0
2025-06-04 16:54:44,711 - INFO - setValues:75 - 外部更新暫存器 398: 0
2025-06-04 16:54:44,711 - INFO - write_register:252 - 寫入暫存器 397: 0 -> 0
2025-06-04 16:54:44,711 - INFO - setValues:75 - 外部更新暫存器 399: 0
2025-06-04 16:54:44,711 - INFO - setValues:75 - 外部更新暫存器 399: 0
2025-06-04 16:54:44,711 - INFO - write_register:252 - 寫入暫存器 398: 0 -> 0
2025-06-04 16:54:44,711 - INFO - setValues:75 - 外部更新暫存器 400: 0
2025-06-04 16:54:44,711 - INFO - setValues:75 - 外部更新暫存器 400: 0
2025-06-04 16:54:44,712 - INFO - write_register:252 - 寫入暫存器 399: 0 -> 0
2025-06-04 16:54:44,712 - INFO - setValues:75 - 外部更新暫存器 401: 0
2025-06-04 16:54:44,712 - INFO - setValues:75 - 外部更新暫存器 401: 0
2025-06-04 16:54:44,712 - INFO - write_register:252 - 寫入暫存器 400: 0 -> 0
2025-06-04 16:54:44,712 - INFO - setValues:75 - 外部更新暫存器 402: 0
2025-06-04 16:54:44,712 - INFO - setValues:75 - 外部更新暫存器 402: 0
2025-06-04 16:54:44,712 - INFO - write_register:252 - 寫入暫存器 401: 0 -> 0
2025-06-04 16:54:44,712 - INFO - setValues:75 - 外部更新暫存器 403: 0
2025-06-04 16:54:44,713 - INFO - setValues:75 - 外部更新暫存器 403: 0
2025-06-04 16:54:44,713 - INFO - write_register:252 - 寫入暫存器 402: 0 -> 0
2025-06-04 16:54:44,713 - INFO - setValues:75 - 外部更新暫存器 404: 0
2025-06-04 16:54:44,713 - INFO - setValues:75 - 外部更新暫存器 404: 0
2025-06-04 16:54:44,713 - INFO - write_register:252 - 寫入暫存器 403: 0 -> 0
2025-06-04 16:54:44,713 - INFO - setValues:75 - 外部更新暫存器 405: 0
2025-06-04 16:54:44,713 - INFO - setValues:75 - 外部更新暫存器 405: 0
2025-06-04 16:54:44,713 - INFO - write_register:252 - 寫入暫存器 404: 0 -> 0
2025-06-04 16:54:44,714 - INFO - setValues:75 - 外部更新暫存器 406: 0
2025-06-04 16:54:44,714 - INFO - setValues:75 - 外部更新暫存器 406: 0
2025-06-04 16:54:44,714 - INFO - write_register:252 - 寫入暫存器 405: 0 -> 0
2025-06-04 16:54:44,714 - INFO - setValues:75 - 外部更新暫存器 407: 0
2025-06-04 16:54:44,714 - INFO - setValues:75 - 外部更新暫存器 407: 0
2025-06-04 16:54:44,714 - INFO - write_register:252 - 寫入暫存器 406: 0 -> 0
2025-06-04 16:54:44,714 - INFO - setValues:75 - 外部更新暫存器 408: 0
2025-06-04 16:54:44,714 - INFO - setValues:75 - 外部更新暫存器 408: 0
2025-06-04 16:54:44,715 - INFO - write_register:252 - 寫入暫存器 407: 0 -> 0
2025-06-04 16:54:44,715 - INFO - setValues:75 - 外部更新暫存器 409: 0
2025-06-04 16:54:44,715 - INFO - setValues:75 - 外部更新暫存器 409: 0
2025-06-04 16:54:44,715 - INFO - write_register:252 - 寫入暫存器 408: 0 -> 0
2025-06-04 16:54:44,715 - INFO - setValues:75 - 外部更新暫存器 410: 0
2025-06-04 16:54:44,715 - INFO - setValues:75 - 外部更新暫存器 410: 0
2025-06-04 16:54:44,715 - INFO - write_register:252 - 寫入暫存器 409: 0 -> 0
2025-06-04 16:54:44,715 - INFO - setValues:75 - 外部更新暫存器 411: 0
2025-06-04 16:54:44,716 - INFO - setValues:75 - 外部更新暫存器 411: 0
2025-06-04 16:54:44,716 - INFO - write_register:252 - 寫入暫存器 410: 0 -> 0
2025-06-04 16:54:44,716 - INFO - setValues:75 - 外部更新暫存器 412: 0
2025-06-04 16:54:44,716 - INFO - setValues:75 - 外部更新暫存器 412: 0
2025-06-04 16:54:44,716 - INFO - write_register:252 - 寫入暫存器 411: 0 -> 0
2025-06-04 16:54:44,716 - INFO - setValues:75 - 外部更新暫存器 413: 0
2025-06-04 16:54:44,716 - INFO - setValues:75 - 外部更新暫存器 413: 0
2025-06-04 16:54:44,716 - INFO - write_register:252 - 寫入暫存器 412: 0 -> 0
2025-06-04 16:54:44,716 - INFO - setValues:75 - 外部更新暫存器 414: 0
2025-06-04 16:54:44,717 - INFO - setValues:75 - 外部更新暫存器 414: 0
2025-06-04 16:54:44,718 - INFO - write_register:252 - 寫入暫存器 413: 0 -> 0
2025-06-04 16:54:44,718 - INFO - setValues:75 - 外部更新暫存器 415: 0
2025-06-04 16:54:44,718 - INFO - setValues:75 - 外部更新暫存器 415: 0
2025-06-04 16:54:44,718 - INFO - write_register:252 - 寫入暫存器 414: 0 -> 0
2025-06-04 16:54:44,718 - INFO - setValues:75 - 外部更新暫存器 416: 0
2025-06-04 16:54:44,718 - INFO - setValues:75 - 外部更新暫存器 416: 0
2025-06-04 16:54:44,718 - INFO - write_register:252 - 寫入暫存器 415: 0 -> 0
2025-06-04 16:54:44,718 - INFO - setValues:75 - 外部更新暫存器 417: 0
2025-06-04 16:54:44,719 - INFO - setValues:75 - 外部更新暫存器 417: 0
2025-06-04 16:54:44,719 - INFO - write_register:252 - 寫入暫存器 416: 0 -> 0
2025-06-04 16:54:44,719 - INFO - setValues:75 - 外部更新暫存器 418: 0
2025-06-04 16:54:44,719 - INFO - setValues:75 - 外部更新暫存器 418: 0
2025-06-04 16:54:44,719 - INFO - write_register:252 - 寫入暫存器 417: 0 -> 0
2025-06-04 16:54:44,719 - INFO - setValues:75 - 外部更新暫存器 419: 0
2025-06-04 16:54:44,719 - INFO - setValues:75 - 外部更新暫存器 419: 0
2025-06-04 16:54:44,719 - INFO - write_register:252 - 寫入暫存器 418: 0 -> 0
2025-06-04 16:54:44,719 - INFO - setValues:75 - 外部更新暫存器 420: 0
2025-06-04 16:54:44,720 - INFO - setValues:75 - 外部更新暫存器 420: 0
2025-06-04 16:54:44,720 - INFO - write_register:252 - 寫入暫存器 419: 0 -> 0
2025-06-04 16:54:44,720 - INFO - setValues:75 - 外部更新暫存器 421: 0
2025-06-04 16:54:44,720 - INFO - setValues:75 - 外部更新暫存器 421: 0
2025-06-04 16:54:44,720 - INFO - write_register:252 - 寫入暫存器 420: 0 -> 0
2025-06-04 16:54:44,720 - INFO - setValues:75 - 外部更新暫存器 422: 0
2025-06-04 16:54:44,720 - INFO - setValues:75 - 外部更新暫存器 422: 0
2025-06-04 16:54:44,720 - INFO - write_register:252 - 寫入暫存器 421: 0 -> 0
2025-06-04 16:54:44,721 - INFO - setValues:75 - 外部更新暫存器 423: 0
2025-06-04 16:54:44,721 - INFO - setValues:75 - 外部更新暫存器 423: 0
2025-06-04 16:54:44,721 - INFO - write_register:252 - 寫入暫存器 422: 0 -> 0
2025-06-04 16:54:44,721 - INFO - setValues:75 - 外部更新暫存器 424: 0
2025-06-04 16:54:44,721 - INFO - setValues:75 - 外部更新暫存器 424: 0
2025-06-04 16:54:44,721 - INFO - write_register:252 - 寫入暫存器 423: 0 -> 0
2025-06-04 16:54:44,722 - INFO - setValues:75 - 外部更新暫存器 425: 0
2025-06-04 16:54:44,722 - INFO - setValues:75 - 外部更新暫存器 425: 0
2025-06-04 16:54:44,722 - INFO - write_register:252 - 寫入暫存器 424: 0 -> 0
2025-06-04 16:54:44,722 - INFO - setValues:75 - 外部更新暫存器 426: 0
2025-06-04 16:54:44,722 - INFO - setValues:75 - 外部更新暫存器 426: 0
2025-06-04 16:54:44,722 - INFO - write_register:252 - 寫入暫存器 425: 0 -> 0
2025-06-04 16:54:44,722 - INFO - setValues:75 - 外部更新暫存器 427: 0
2025-06-04 16:54:44,722 - INFO - setValues:75 - 外部更新暫存器 427: 0
2025-06-04 16:54:44,723 - INFO - write_register:252 - 寫入暫存器 426: 0 -> 0
2025-06-04 16:54:44,723 - INFO - setValues:75 - 外部更新暫存器 428: 0
2025-06-04 16:54:44,723 - INFO - setValues:75 - 外部更新暫存器 428: 0
2025-06-04 16:54:44,723 - INFO - write_register:252 - 寫入暫存器 427: 0 -> 0
2025-06-04 16:54:44,723 - INFO - setValues:75 - 外部更新暫存器 429: 0
2025-06-04 16:54:44,723 - INFO - setValues:75 - 外部更新暫存器 429: 0
2025-06-04 16:54:44,723 - INFO - write_register:252 - 寫入暫存器 428: 0 -> 0
2025-06-04 16:54:44,723 - INFO - setValues:75 - 外部更新暫存器 430: 0
2025-06-04 16:54:44,724 - INFO - setValues:75 - 外部更新暫存器 430: 0
2025-06-04 16:54:44,724 - INFO - write_register:252 - 寫入暫存器 429: 0 -> 0
2025-06-04 16:54:44,724 - INFO - setValues:75 - 外部更新暫存器 431: 0
2025-06-04 16:54:44,724 - INFO - setValues:75 - 外部更新暫存器 431: 0
2025-06-04 16:54:44,724 - INFO - write_register:252 - 寫入暫存器 430: 0 -> 0
2025-06-04 16:54:44,724 - INFO - setValues:75 - 外部更新暫存器 432: 0
2025-06-04 16:54:44,724 - INFO - setValues:75 - 外部更新暫存器 432: 0
2025-06-04 16:54:44,724 - INFO - write_register:252 - 寫入暫存器 431: 0 -> 0
2025-06-04 16:54:44,725 - INFO - setValues:75 - 外部更新暫存器 433: 0
2025-06-04 16:54:44,725 - INFO - setValues:75 - 外部更新暫存器 433: 0
2025-06-04 16:54:44,725 - INFO - write_register:252 - 寫入暫存器 432: 0 -> 0
2025-06-04 16:54:44,725 - INFO - setValues:75 - 外部更新暫存器 434: 0
2025-06-04 16:54:44,725 - INFO - setValues:75 - 外部更新暫存器 434: 0
2025-06-04 16:54:44,725 - INFO - write_register:252 - 寫入暫存器 433: 0 -> 0
2025-06-04 16:54:44,725 - INFO - setValues:75 - 外部更新暫存器 435: 0
2025-06-04 16:54:44,725 - INFO - setValues:75 - 外部更新暫存器 435: 0
2025-06-04 16:54:44,726 - INFO - write_register:252 - 寫入暫存器 434: 0 -> 0
2025-06-04 16:54:44,726 - INFO - setValues:75 - 外部更新暫存器 436: 0
2025-06-04 16:54:44,726 - INFO - setValues:75 - 外部更新暫存器 436: 0
2025-06-04 16:54:44,726 - INFO - write_register:252 - 寫入暫存器 435: 0 -> 0
2025-06-04 16:54:44,726 - INFO - setValues:75 - 外部更新暫存器 437: 0
2025-06-04 16:54:44,726 - INFO - setValues:75 - 外部更新暫存器 437: 0
2025-06-04 16:54:44,726 - INFO - write_register:252 - 寫入暫存器 436: 0 -> 0
2025-06-04 16:54:44,726 - INFO - setValues:75 - 外部更新暫存器 438: 0
2025-06-04 16:54:44,727 - INFO - setValues:75 - 外部更新暫存器 438: 0
2025-06-04 16:54:44,727 - INFO - write_register:252 - 寫入暫存器 437: 0 -> 0
2025-06-04 16:54:44,727 - INFO - setValues:75 - 外部更新暫存器 439: 0
2025-06-04 16:54:44,727 - INFO - setValues:75 - 外部更新暫存器 439: 0
2025-06-04 16:54:44,727 - INFO - write_register:252 - 寫入暫存器 438: 0 -> 0
2025-06-04 16:54:44,727 - INFO - setValues:75 - 外部更新暫存器 440: 0
2025-06-04 16:54:44,727 - INFO - setValues:75 - 外部更新暫存器 440: 0
2025-06-04 16:54:44,727 - INFO - write_register:252 - 寫入暫存器 439: 0 -> 0
2025-06-04 16:54:44,728 - INFO - setValues:75 - 外部更新暫存器 441: 0
2025-06-04 16:54:44,728 - INFO - setValues:75 - 外部更新暫存器 441: 0
2025-06-04 16:54:44,728 - INFO - write_register:252 - 寫入暫存器 440: 0 -> 0
2025-06-04 16:54:44,728 - INFO - setValues:75 - 外部更新暫存器 442: 0
2025-06-04 16:54:44,728 - INFO - setValues:75 - 外部更新暫存器 442: 0
2025-06-04 16:54:44,728 - INFO - write_register:252 - 寫入暫存器 441: 0 -> 0
2025-06-04 16:54:44,728 - INFO - setValues:75 - 外部更新暫存器 443: 0
2025-06-04 16:54:44,729 - INFO - setValues:75 - 外部更新暫存器 443: 0
2025-06-04 16:54:44,729 - INFO - write_register:252 - 寫入暫存器 442: 0 -> 0
2025-06-04 16:54:44,729 - INFO - setValues:75 - 外部更新暫存器 444: 0
2025-06-04 16:54:44,729 - INFO - setValues:75 - 外部更新暫存器 444: 0
2025-06-04 16:54:44,729 - INFO - write_register:252 - 寫入暫存器 443: 0 -> 0
2025-06-04 16:54:44,729 - INFO - setValues:75 - 外部更新暫存器 445: 0
2025-06-04 16:54:44,729 - INFO - setValues:75 - 外部更新暫存器 445: 0
2025-06-04 16:54:44,729 - INFO - write_register:252 - 寫入暫存器 444: 0 -> 0
2025-06-04 16:54:44,730 - INFO - setValues:75 - 外部更新暫存器 446: 0
2025-06-04 16:54:44,730 - INFO - setValues:75 - 外部更新暫存器 446: 0
2025-06-04 16:54:44,730 - INFO - write_register:252 - 寫入暫存器 445: 0 -> 0
2025-06-04 16:54:44,730 - INFO - setValues:75 - 外部更新暫存器 447: 0
2025-06-04 16:54:44,730 - INFO - setValues:75 - 外部更新暫存器 447: 0
2025-06-04 16:54:44,730 - INFO - write_register:252 - 寫入暫存器 446: 0 -> 0
2025-06-04 16:54:44,730 - INFO - setValues:75 - 外部更新暫存器 448: 0
2025-06-04 16:54:44,731 - INFO - setValues:75 - 外部更新暫存器 448: 0
2025-06-04 16:54:44,731 - INFO - write_register:252 - 寫入暫存器 447: 0 -> 0
2025-06-04 16:54:44,731 - INFO - setValues:75 - 外部更新暫存器 449: 0
2025-06-04 16:54:44,731 - INFO - setValues:75 - 外部更新暫存器 449: 0
2025-06-04 16:54:44,731 - INFO - write_register:252 - 寫入暫存器 448: 0 -> 0
2025-06-04 16:54:44,731 - INFO - setValues:75 - 外部更新暫存器 450: 0
2025-06-04 16:54:44,731 - INFO - setValues:75 - 外部更新暫存器 450: 0
2025-06-04 16:54:44,731 - INFO - write_register:252 - 寫入暫存器 449: 0 -> 0
2025-06-04 16:54:44,732 - INFO - setValues:75 - 外部更新暫存器 451: 0
2025-06-04 16:54:44,732 - INFO - setValues:75 - 外部更新暫存器 451: 0
2025-06-04 16:54:44,732 - INFO - write_register:252 - 寫入暫存器 450: 0 -> 0
2025-06-04 16:54:44,732 - INFO - setValues:75 - 外部更新暫存器 452: 0
2025-06-04 16:54:44,732 - INFO - setValues:75 - 外部更新暫存器 452: 0
2025-06-04 16:54:44,732 - INFO - write_register:252 - 寫入暫存器 451: 0 -> 0
2025-06-04 16:54:44,732 - INFO - setValues:75 - 外部更新暫存器 453: 0
2025-06-04 16:54:44,732 - INFO - setValues:75 - 外部更新暫存器 453: 0
2025-06-04 16:54:44,734 - INFO - write_register:252 - 寫入暫存器 452: 0 -> 0
2025-06-04 16:54:44,734 - INFO - setValues:75 - 外部更新暫存器 454: 0
2025-06-04 16:54:44,734 - INFO - setValues:75 - 外部更新暫存器 454: 0
2025-06-04 16:54:44,734 - INFO - write_register:252 - 寫入暫存器 453: 0 -> 0
2025-06-04 16:54:44,734 - INFO - setValues:75 - 外部更新暫存器 455: 0
2025-06-04 16:54:44,735 - INFO - setValues:75 - 外部更新暫存器 455: 0
2025-06-04 16:54:44,735 - INFO - write_register:252 - 寫入暫存器 454: 0 -> 0
2025-06-04 16:54:44,735 - INFO - setValues:75 - 外部更新暫存器 456: 0
2025-06-04 16:54:44,735 - INFO - setValues:75 - 外部更新暫存器 456: 0
2025-06-04 16:54:44,735 - INFO - write_register:252 - 寫入暫存器 455: 0 -> 0
2025-06-04 16:54:44,735 - INFO - setValues:75 - 外部更新暫存器 457: 0
2025-06-04 16:54:44,735 - INFO - setValues:75 - 外部更新暫存器 457: 0
2025-06-04 16:54:44,735 - INFO - write_register:252 - 寫入暫存器 456: 0 -> 0
2025-06-04 16:54:44,735 - INFO - setValues:75 - 外部更新暫存器 458: 0
2025-06-04 16:54:44,736 - INFO - setValues:75 - 外部更新暫存器 458: 0
2025-06-04 16:54:44,736 - INFO - write_register:252 - 寫入暫存器 457: 0 -> 0
2025-06-04 16:54:44,736 - INFO - setValues:75 - 外部更新暫存器 459: 0
2025-06-04 16:54:44,736 - INFO - setValues:75 - 外部更新暫存器 459: 0
2025-06-04 16:54:44,736 - INFO - write_register:252 - 寫入暫存器 458: 0 -> 0
2025-06-04 16:54:44,736 - INFO - setValues:75 - 外部更新暫存器 460: 0
2025-06-04 16:54:44,736 - INFO - setValues:75 - 外部更新暫存器 460: 0
2025-06-04 16:54:44,736 - INFO - write_register:252 - 寫入暫存器 459: 0 -> 0
2025-06-04 16:54:44,736 - INFO - setValues:75 - 外部更新暫存器 461: 0
2025-06-04 16:54:44,737 - INFO - setValues:75 - 外部更新暫存器 461: 0
2025-06-04 16:54:44,737 - INFO - write_register:252 - 寫入暫存器 460: 0 -> 0
2025-06-04 16:54:44,737 - INFO - setValues:75 - 外部更新暫存器 462: 0
2025-06-04 16:54:44,737 - INFO - setValues:75 - 外部更新暫存器 462: 0
2025-06-04 16:54:44,737 - INFO - write_register:252 - 寫入暫存器 461: 0 -> 0
2025-06-04 16:54:44,737 - INFO - setValues:75 - 外部更新暫存器 463: 0
2025-06-04 16:54:44,737 - INFO - setValues:75 - 外部更新暫存器 463: 0
2025-06-04 16:54:44,738 - INFO - write_register:252 - 寫入暫存器 462: 0 -> 0
2025-06-04 16:54:44,738 - INFO - setValues:75 - 外部更新暫存器 464: 0
2025-06-04 16:54:44,738 - INFO - setValues:75 - 外部更新暫存器 464: 0
2025-06-04 16:54:44,738 - INFO - write_register:252 - 寫入暫存器 463: 0 -> 0
2025-06-04 16:54:44,738 - INFO - setValues:75 - 外部更新暫存器 465: 0
2025-06-04 16:54:44,738 - INFO - setValues:75 - 外部更新暫存器 465: 0
2025-06-04 16:54:44,738 - INFO - write_register:252 - 寫入暫存器 464: 0 -> 0
2025-06-04 16:54:44,738 - INFO - setValues:75 - 外部更新暫存器 466: 0
2025-06-04 16:54:44,739 - INFO - setValues:75 - 外部更新暫存器 466: 0
2025-06-04 16:54:44,739 - INFO - write_register:252 - 寫入暫存器 465: 0 -> 0
2025-06-04 16:54:44,739 - INFO - setValues:75 - 外部更新暫存器 467: 0
2025-06-04 16:54:44,739 - INFO - setValues:75 - 外部更新暫存器 467: 0
2025-06-04 16:54:44,739 - INFO - write_register:252 - 寫入暫存器 466: 0 -> 0
2025-06-04 16:54:44,739 - INFO - setValues:75 - 外部更新暫存器 468: 0
2025-06-04 16:54:44,739 - INFO - setValues:75 - 外部更新暫存器 468: 0
2025-06-04 16:54:44,739 - INFO - write_register:252 - 寫入暫存器 467: 0 -> 0
2025-06-04 16:54:44,739 - INFO - setValues:75 - 外部更新暫存器 469: 0
2025-06-04 16:54:44,740 - INFO - setValues:75 - 外部更新暫存器 469: 0
2025-06-04 16:54:44,740 - INFO - write_register:252 - 寫入暫存器 468: 0 -> 0
2025-06-04 16:54:44,740 - INFO - setValues:75 - 外部更新暫存器 470: 0
2025-06-04 16:54:44,740 - INFO - setValues:75 - 外部更新暫存器 470: 0
2025-06-04 16:54:44,740 - INFO - write_register:252 - 寫入暫存器 469: 0 -> 0
2025-06-04 16:54:44,740 - INFO - setValues:75 - 外部更新暫存器 471: 0
2025-06-04 16:54:44,740 - INFO - setValues:75 - 外部更新暫存器 471: 0
2025-06-04 16:54:44,740 - INFO - write_register:252 - 寫入暫存器 470: 0 -> 0
2025-06-04 16:54:44,741 - INFO - setValues:75 - 外部更新暫存器 472: 0
2025-06-04 16:54:44,741 - INFO - setValues:75 - 外部更新暫存器 472: 0
2025-06-04 16:54:44,741 - INFO - write_register:252 - 寫入暫存器 471: 0 -> 0
2025-06-04 16:54:44,741 - INFO - setValues:75 - 外部更新暫存器 473: 0
2025-06-04 16:54:44,741 - INFO - setValues:75 - 外部更新暫存器 473: 0
2025-06-04 16:54:44,741 - INFO - write_register:252 - 寫入暫存器 472: 0 -> 0
2025-06-04 16:54:44,742 - INFO - setValues:75 - 外部更新暫存器 474: 0
2025-06-04 16:54:44,742 - INFO - setValues:75 - 外部更新暫存器 474: 0
2025-06-04 16:54:44,742 - INFO - write_register:252 - 寫入暫存器 473: 0 -> 0
2025-06-04 16:54:44,742 - INFO - setValues:75 - 外部更新暫存器 475: 0
2025-06-04 16:54:44,742 - INFO - setValues:75 - 外部更新暫存器 475: 0
2025-06-04 16:54:44,742 - INFO - write_register:252 - 寫入暫存器 474: 0 -> 0
2025-06-04 16:54:44,742 - INFO - setValues:75 - 外部更新暫存器 476: 0
2025-06-04 16:54:44,742 - INFO - setValues:75 - 外部更新暫存器 476: 0
2025-06-04 16:54:44,742 - INFO - write_register:252 - 寫入暫存器 475: 0 -> 0
2025-06-04 16:54:44,743 - INFO - setValues:75 - 外部更新暫存器 477: 0
2025-06-04 16:54:44,743 - INFO - setValues:75 - 外部更新暫存器 477: 0
2025-06-04 16:54:44,743 - INFO - write_register:252 - 寫入暫存器 476: 0 -> 0
2025-06-04 16:54:44,743 - INFO - setValues:75 - 外部更新暫存器 478: 0
2025-06-04 16:54:44,743 - INFO - setValues:75 - 外部更新暫存器 478: 0
2025-06-04 16:54:44,743 - INFO - write_register:252 - 寫入暫存器 477: 0 -> 0
2025-06-04 16:54:44,743 - INFO - setValues:75 - 外部更新暫存器 479: 0
2025-06-04 16:54:44,743 - INFO - setValues:75 - 外部更新暫存器 479: 0
2025-06-04 16:54:44,744 - INFO - write_register:252 - 寫入暫存器 478: 0 -> 0
2025-06-04 16:54:44,744 - INFO - setValues:75 - 外部更新暫存器 480: 0
2025-06-04 16:54:44,744 - INFO - setValues:75 - 外部更新暫存器 480: 0
2025-06-04 16:54:44,744 - INFO - write_register:252 - 寫入暫存器 479: 0 -> 0
2025-06-04 16:54:44,744 - INFO - setValues:75 - 外部更新暫存器 481: 0
2025-06-04 16:54:44,744 - INFO - setValues:75 - 外部更新暫存器 481: 0
2025-06-04 16:54:44,744 - INFO - write_register:252 - 寫入暫存器 480: 0 -> 0
2025-06-04 16:54:44,745 - INFO - setValues:75 - 外部更新暫存器 482: 0
2025-06-04 16:54:44,745 - INFO - setValues:75 - 外部更新暫存器 482: 0
2025-06-04 16:54:44,745 - INFO - write_register:252 - 寫入暫存器 481: 0 -> 0
2025-06-04 16:54:44,745 - INFO - setValues:75 - 外部更新暫存器 483: 0
2025-06-04 16:54:44,745 - INFO - setValues:75 - 外部更新暫存器 483: 0
2025-06-04 16:54:44,745 - INFO - write_register:252 - 寫入暫存器 482: 0 -> 0
2025-06-04 16:54:44,745 - INFO - setValues:75 - 外部更新暫存器 484: 0
2025-06-04 16:54:44,745 - INFO - setValues:75 - 外部更新暫存器 484: 0
2025-06-04 16:54:44,745 - INFO - write_register:252 - 寫入暫存器 483: 0 -> 0
2025-06-04 16:54:44,746 - INFO - setValues:75 - 外部更新暫存器 485: 0
2025-06-04 16:54:44,746 - INFO - setValues:75 - 外部更新暫存器 485: 0
2025-06-04 16:54:44,746 - INFO - write_register:252 - 寫入暫存器 484: 0 -> 0
2025-06-04 16:54:44,746 - INFO - setValues:75 - 外部更新暫存器 486: 0
2025-06-04 16:54:44,746 - INFO - setValues:75 - 外部更新暫存器 486: 0
2025-06-04 16:54:44,746 - INFO - write_register:252 - 寫入暫存器 485: 0 -> 0
2025-06-04 16:54:44,746 - INFO - setValues:75 - 外部更新暫存器 487: 0
2025-06-04 16:54:44,746 - INFO - setValues:75 - 外部更新暫存器 487: 0
2025-06-04 16:54:44,747 - INFO - write_register:252 - 寫入暫存器 486: 0 -> 0
2025-06-04 16:54:44,747 - INFO - setValues:75 - 外部更新暫存器 488: 0
2025-06-04 16:54:44,747 - INFO - setValues:75 - 外部更新暫存器 488: 0
2025-06-04 16:54:44,747 - INFO - write_register:252 - 寫入暫存器 487: 0 -> 0
2025-06-04 16:54:44,747 - INFO - setValues:75 - 外部更新暫存器 489: 0
2025-06-04 16:54:44,747 - INFO - setValues:75 - 外部更新暫存器 489: 0
2025-06-04 16:54:44,747 - INFO - write_register:252 - 寫入暫存器 488: 0 -> 0
2025-06-04 16:54:44,747 - INFO - setValues:75 - 外部更新暫存器 490: 0
2025-06-04 16:54:44,747 - INFO - setValues:75 - 外部更新暫存器 490: 0
2025-06-04 16:54:44,748 - INFO - write_register:252 - 寫入暫存器 489: 0 -> 0
2025-06-04 16:54:44,749 - INFO - setValues:75 - 外部更新暫存器 491: 0
2025-06-04 16:54:44,749 - INFO - setValues:75 - 外部更新暫存器 491: 0
2025-06-04 16:54:44,749 - INFO - write_register:252 - 寫入暫存器 490: 0 -> 0
2025-06-04 16:54:44,749 - INFO - setValues:75 - 外部更新暫存器 492: 0
2025-06-04 16:54:44,749 - INFO - setValues:75 - 外部更新暫存器 492: 0
2025-06-04 16:54:44,749 - INFO - write_register:252 - 寫入暫存器 491: 0 -> 0
2025-06-04 16:54:44,750 - INFO - setValues:75 - 外部更新暫存器 493: 0
2025-06-04 16:54:44,750 - INFO - setValues:75 - 外部更新暫存器 493: 0
2025-06-04 16:54:44,750 - INFO - write_register:252 - 寫入暫存器 492: 0 -> 0
2025-06-04 16:54:44,750 - INFO - setValues:75 - 外部更新暫存器 494: 0
2025-06-04 16:54:44,750 - INFO - setValues:75 - 外部更新暫存器 494: 0
2025-06-04 16:54:44,750 - INFO - write_register:252 - 寫入暫存器 493: 0 -> 0
2025-06-04 16:54:44,750 - INFO - setValues:75 - 外部更新暫存器 495: 0
2025-06-04 16:54:44,750 - INFO - setValues:75 - 外部更新暫存器 495: 0
2025-06-04 16:54:44,750 - INFO - write_register:252 - 寫入暫存器 494: 0 -> 0
2025-06-04 16:54:44,751 - INFO - setValues:75 - 外部更新暫存器 496: 0
2025-06-04 16:54:44,751 - INFO - setValues:75 - 外部更新暫存器 496: 0
2025-06-04 16:54:44,751 - INFO - write_register:252 - 寫入暫存器 495: 0 -> 0
2025-06-04 16:54:44,751 - INFO - setValues:75 - 外部更新暫存器 497: 0
2025-06-04 16:54:44,751 - INFO - setValues:75 - 外部更新暫存器 497: 0
2025-06-04 16:54:44,751 - INFO - write_register:252 - 寫入暫存器 496: 0 -> 0
2025-06-04 16:54:44,751 - INFO - setValues:75 - 外部更新暫存器 498: 0
2025-06-04 16:54:44,751 - INFO - setValues:75 - 外部更新暫存器 498: 0
2025-06-04 16:54:44,751 - INFO - write_register:252 - 寫入暫存器 497: 0 -> 0
2025-06-04 16:54:44,752 - INFO - setValues:75 - 外部更新暫存器 499: 0
2025-06-04 16:54:44,752 - INFO - setValues:75 - 外部更新暫存器 499: 0
2025-06-04 16:54:44,752 - INFO - write_register:252 - 寫入暫存器 498: 0 -> 0
2025-06-04 16:54:44,752 - INFO - setValues:75 - 外部更新暫存器 500: 0
2025-06-04 16:54:44,752 - INFO - setValues:75 - 外部更新暫存器 500: 0
2025-06-04 16:54:44,752 - INFO - write_register:252 - 寫入暫存器 499: 0 -> 0
